! Mini-Circuits  
! S2P DATA File Format
! Type: MMIC Amplifier
! Model: ERA-1     Reference Data:RDF-960
! Note: All S Parameters are in dB deg format
! TEST CONDITIONS: INPUT POWER = -15dBm, Icc = 32mA, Vd = 3.50V @Temperature = -45degC
!
# MHz S DB R 50
!    FREQ       dB(S11)   PHS(S11)  dB(S21)   PHS(S21)  dB(S12)   PHS(S12)  dB(S22)   PHS(S22) 
   50.000000   -25.040    -3.305    12.121   174.634   -16.754    -4.253   -46.223   138.449 
   77.000000   -24.335    -5.322    12.146   172.059   -16.754    -6.069   -45.438   133.864 
  104.000000   -24.332    -7.160    12.119   169.457   -16.757    -8.079   -46.679   129.409 
  131.000000   -24.566    -9.260    12.106   166.910   -16.752    -9.973   -46.403   124.279 
  158.000000   -24.564   -10.678    12.090   164.328   -16.764   -12.196   -45.709   118.257 
  185.000000   -24.507   -11.456    12.109   161.592   -16.751   -14.208   -44.408   114.150 
  212.000000   -24.533   -13.427    12.119   158.927   -16.743   -16.248   -43.393   112.741 
  239.000000   -24.475   -17.318    12.107   156.374   -16.755   -18.344   -42.424   103.397 
  266.000000   -24.848   -19.290    12.093   153.696   -16.746   -20.277   -40.898    98.980 
  293.000000   -24.833   -22.025    12.094   151.039   -16.752   -22.210   -39.070   100.916 
  320.000000   -24.832   -23.936    12.098   148.374   -16.756   -24.200   -37.854    98.112 
  347.000000   -24.844   -28.338    12.063   145.743   -16.760   -26.350   -37.461    94.222 
  374.000000   -24.909   -30.424    12.049   143.100   -16.766   -28.405   -36.695    89.445 
  401.000000   -25.056   -30.647    12.029   140.550   -16.751   -30.349   -36.284    89.144 
  428.000000   -25.217   -32.453    12.037   137.818   -16.758   -32.434   -35.404    88.021 
  455.000000   -25.398   -34.166    12.022   135.247   -16.746   -34.480   -34.613    86.735 
  482.000000   -25.651   -34.958    12.034   132.702   -16.760   -36.509   -34.160    87.516 
  509.000000   -25.873   -39.641    12.005   129.986   -16.753   -38.507   -33.375    86.706 
  536.000000   -25.991   -38.668    12.010   127.446   -16.750   -40.608   -33.171    87.421 
  563.000000   -26.514   -40.015    11.974   124.765   -16.751   -42.697   -32.549    86.566 
  590.000000   -26.838   -42.511    11.974   122.099   -16.758   -44.664   -31.850    84.717 
  617.000000   -26.916   -46.197    11.968   119.536   -16.754   -46.771   -31.462    80.216 
  644.000000   -26.816   -47.737    11.951   116.813   -16.754   -48.843   -30.997    77.724 
  671.000000   -27.089   -49.472    11.949   114.257   -16.760   -50.835   -30.657    75.898 
  698.000000   -27.054   -51.563    11.923   111.672   -16.767   -52.887   -30.104    74.702 
  725.000000   -27.269   -51.483    11.923   109.071   -16.753   -54.838   -29.547    74.856 
  752.000000   -27.578   -53.955    11.903   106.440   -16.765   -56.961   -29.353    73.725 
  779.000000   -27.852   -55.833    11.877   103.858   -16.756   -58.996   -29.102    70.985 
  806.000000   -28.030   -54.253    11.890   101.225   -16.751   -61.071   -28.728    68.325 
  833.000000   -28.565   -55.708    11.871    98.677   -16.771   -63.081   -28.195    65.878 
  860.000000   -29.032   -60.525    11.864    96.051   -16.770   -65.121   -27.653    64.225 
  887.000000   -29.319   -59.622    11.838    93.521   -16.769   -67.161   -27.214    63.368 
  914.000000   -29.394   -56.746    11.831    90.955   -16.775   -69.337   -26.988    63.120 
  941.000000   -29.951   -59.924    11.813    88.257   -16.789   -71.382   -26.716    62.016 
  968.000000   -30.123   -58.753    11.807    85.813   -16.785   -73.317   -26.566    59.970 
  995.000000   -30.547   -61.280    11.792    83.041   -16.780   -75.554   -26.359    57.415 
 1022.000000   -30.878   -64.543    11.762    80.465   -16.799   -77.565   -26.073    54.288 
 1049.000000   -30.845   -63.061    11.765    77.893   -16.784   -79.496   -25.807    52.750 
 1076.000000   -31.247   -60.576    11.742    75.376   -16.795   -81.650   -25.481    51.029 
 1103.000000   -31.999   -61.283    11.749    72.639   -16.783   -83.729   -25.127    49.367 
 1130.000000   -31.700   -62.464    11.719    70.114   -16.805   -85.719   -25.153    47.458 
 1157.000000   -31.961   -58.782    11.701    67.514   -16.806   -87.834   -24.947    45.154 
 1184.000000   -32.655   -60.192    11.696    64.918   -16.800   -89.831   -24.739    42.911 
 1211.000000   -33.240   -61.517    11.678    62.413   -16.809   -91.896   -24.388    40.488 
 1238.000000   -33.395   -60.852    11.657    59.802   -16.810   -93.993   -24.097    37.872 
 1265.000000   -33.635   -57.476    11.662    57.309   -16.821   -96.063   -23.897    36.755 
 1292.000000   -33.926   -54.348    11.632    54.679   -16.809   -98.093   -23.763    35.291 
 1319.000000   -33.351   -50.716    11.619    52.121   -16.826  -100.178   -23.592    33.706 
 1346.000000   -33.873   -47.232    11.595    49.555   -16.818  -102.182   -23.412    31.433 
 1373.000000   -34.322   -44.920    11.610    46.943   -16.846  -104.385   -23.125    28.871 
 1400.000000   -34.033   -46.023    11.577    44.413   -16.845  -106.308   -22.995    27.328 
 1427.000000   -33.992   -38.650    11.575    41.776   -16.844  -108.331   -22.750    26.114 
 1454.000000   -34.611   -37.041    11.551    39.388   -16.865  -110.408   -22.655    24.107 
 1481.000000   -34.400   -42.222    11.548    36.821   -16.852  -112.374   -22.610    21.583 
 1508.000000   -34.008   -41.315    11.518    34.163   -16.868  -114.571   -22.640    19.353 
 1535.000000   -34.180   -40.424    11.517    31.652   -16.882  -116.603   -22.523    17.356 
 1562.000000   -33.666   -41.705    11.503    29.101   -16.864  -118.687   -22.360    15.250 
 1589.000000   -33.420   -34.773    11.478    26.535   -16.894  -120.824   -22.211    12.436 
 1616.000000   -33.497   -38.281    11.463    23.937   -16.899  -122.738   -22.225    11.365 
 1643.000000   -33.377   -38.929    11.455    21.347   -16.900  -124.844   -22.191     9.247 
 1670.000000   -32.868   -39.280    11.435    18.834   -16.906  -126.951   -22.174     7.126 
 1697.000000   -32.874   -32.451    11.438    16.309   -16.923  -129.004   -21.958     3.743 
 1724.000000   -33.356   -32.260    11.415    13.717   -16.925  -130.990   -21.763     1.184 
 1751.000000   -32.455   -37.774    11.364    11.221   -16.936  -133.140   -21.643    -0.743 
 1778.000000   -31.556   -33.778    11.370     8.727   -16.922  -135.199   -21.505    -2.088 
 1805.000000   -31.686   -36.379    11.351     6.050   -16.945  -137.176   -21.415    -4.046 
 1832.000000   -32.048   -32.690    11.360     3.558   -16.943  -139.458   -21.337    -6.213 
 1859.000000   -31.862   -35.725    11.343     1.065   -16.952  -141.255   -21.353    -9.665 
 1886.000000   -31.168   -37.749    11.300    -1.564   -16.963  -143.370   -21.228   -11.421 
 1913.000000   -30.374   -39.248    11.286    -4.110   -16.972  -145.374   -21.071   -12.447 
 1940.000000   -30.236   -38.853    11.277    -6.592   -16.974  -147.343   -21.022   -14.274 
 1967.000000   -30.007   -39.806    11.267    -9.136   -16.992  -149.484   -21.022   -15.300 
 1994.000000   -29.859   -41.932    11.232   -11.588   -16.968  -151.602   -21.060   -17.257 
 2021.000000   -29.571   -42.483    11.247   -14.272   -16.997  -153.616   -21.095   -19.489 
 2048.000000   -29.070   -40.425    11.225   -16.834   -17.003  -155.641   -20.983   -22.428 
 2075.000000   -29.664   -38.237    11.242   -19.456   -16.989  -157.817   -20.834   -24.618 
 2102.000000   -29.662   -43.599    11.223   -21.786   -17.011  -159.938   -20.776   -26.551 
 2129.000000   -29.437   -49.541    11.187   -24.459   -17.009  -161.938   -20.822   -28.351 
 2156.000000   -29.234   -49.220    11.179   -26.895   -17.051  -163.994   -21.088   -30.305 
 2183.000000   -29.558   -49.716    11.192   -29.528   -17.044  -166.040   -21.146   -33.282 
 2210.000000   -29.385   -50.409    11.133   -32.059   -17.053  -168.224   -21.043   -36.028 
 2237.000000   -29.144   -53.613    11.122   -34.667   -17.083  -170.150   -21.017   -39.877 
 2264.000000   -28.980   -56.260    11.105   -37.062   -17.057  -172.159   -20.860   -41.769 
 2291.000000   -28.531   -59.277    11.080   -39.582   -17.066  -174.237   -20.762   -43.363 
 2318.000000   -28.720   -58.191    11.065   -42.186   -17.102  -176.273   -20.787   -44.875 
 2345.000000   -28.801   -60.957    11.077   -44.626   -17.072  -178.373   -20.870   -46.513 
 2372.000000   -28.186   -63.862    11.064   -47.307   -17.081   179.566   -20.872   -48.855 
 2399.000000   -27.909   -65.475    11.043   -49.782   -17.104   177.407   -20.737   -51.612 
 2426.000000   -27.897   -63.541    11.029   -52.187   -17.102   175.482   -20.732   -53.610 
 2453.000000   -27.617   -62.244    11.008   -54.806   -17.094   173.207   -20.598   -54.645 
 2480.000000   -27.607   -69.386    10.984   -57.239   -17.157   171.475   -20.604   -58.203 
 2507.000000   -27.138   -69.919    10.958   -59.713   -17.148   169.311   -20.690   -59.432 
 2534.000000   -26.882   -70.367    10.954   -62.413   -17.150   167.118   -20.700   -61.659 
 2561.000000   -27.242   -70.252    10.939   -64.869   -17.167   165.008   -20.751   -64.687 
 2588.000000   -27.295   -73.190    10.903   -67.426   -17.179   162.871   -20.714   -66.788 
 2615.000000   -27.194   -78.840    10.886   -69.886   -17.213   160.931   -20.744   -70.264 
 2642.000000   -27.015   -81.491    10.867   -72.494   -17.190   159.035   -20.927   -71.927 
 2669.000000   -27.148   -78.762    10.883   -74.944   -17.202   156.900   -20.943   -74.200 
 2696.000000   -27.435   -76.598    10.854   -77.513   -17.202   154.803   -21.018   -76.986 
 2723.000000   -27.453   -78.574    10.831   -80.069   -17.201   152.618   -20.978   -79.758 
 2750.000000   -27.194   -80.667    10.824   -82.756   -17.212   150.320   -20.846   -81.215 
 2777.000000   -26.432   -86.997    10.768   -85.148   -17.300   148.326   -20.657   -84.888 
 2804.000000   -26.295   -86.243    10.776   -87.784   -17.272   146.170   -20.687   -86.075 
 2831.000000   -27.133   -93.095    10.727   -90.282   -17.360   144.468   -20.932   -92.411 
 2858.000000   -27.300   -95.210    10.726   -92.576   -17.312   142.401   -21.075   -93.647 
 2885.000000   -26.476   -95.482    10.723   -95.237   -17.315   140.264   -20.892   -95.928 
 2912.000000   -26.618   -95.158    10.689   -97.570   -17.295   138.492   -21.004   -97.632 
 2939.000000   -26.373   -94.106    10.696  -100.242   -17.308   136.291   -20.936   -99.306 
 2966.000000   -26.578   -95.855    10.674  -102.708   -17.306   134.110   -21.060  -101.379 
 2993.000000   -26.999  -100.382    10.659  -105.168   -17.330   132.167   -21.165  -103.485 
 3020.000000   -26.340  -106.538    10.616  -107.749   -17.371   129.959   -21.134  -108.493 
 3047.000000   -26.762  -102.430    10.627  -109.995   -17.349   128.155   -21.311  -110.631 
 3074.000000   -26.130  -102.686    10.596  -112.793   -17.369   125.696   -20.837  -112.415 
 3101.000000   -26.686  -105.240    10.588  -115.091   -17.361   124.020   -21.265  -115.175 
 3128.000000   -26.583  -106.201    10.564  -117.699   -17.360   121.765   -21.297  -115.710 
 3155.000000   -26.089  -110.367    10.548  -120.421   -17.388   119.396   -21.160  -119.283 
 3182.000000   -26.353  -112.140    10.524  -122.802   -17.430   117.334   -21.306  -123.593 
 3209.000000   -26.444  -117.189    10.502  -125.247   -17.464   115.498   -21.294  -128.881 
 3236.000000   -26.536  -116.924    10.498  -127.727   -17.433   113.576   -21.412  -130.189 
 3263.000000   -25.614  -118.733    10.483  -130.423   -17.455   111.137   -20.938  -130.990 
 3290.000000   -25.539  -123.180    10.419  -132.504   -17.526   109.475   -20.988  -135.614 
 3317.000000   -25.824  -119.083    10.451  -135.059   -17.470   107.437   -21.373  -136.143 
 3344.000000   -25.835  -120.823    10.434  -137.716   -17.481   105.343   -21.351  -137.829 
 3371.000000   -25.405  -121.755    10.409  -140.164   -17.484   103.353   -21.277  -141.486 
 3398.000000   -24.537  -119.978    10.417  -142.813   -17.494   100.777   -20.872  -143.197 
 3425.000000   -25.318  -124.586    10.369  -145.077   -17.558    99.145   -20.801  -148.898 
 3452.000000   -25.446  -124.371    10.372  -147.530   -17.538    97.233   -20.979  -149.698 
 3479.000000   -24.988  -126.102    10.370  -150.282   -17.529    94.842   -20.871  -149.905 
 3506.000000   -24.416  -126.758    10.350  -152.972   -17.529    92.245   -20.655  -150.591 
 3533.000000   -24.856  -138.526    10.233  -155.025   -17.717    90.653   -20.626  -161.136 
 3560.000000   -25.403  -129.634    10.313  -157.592   -17.596    88.960   -21.098  -161.370 
 3587.000000   -25.160  -136.972    10.233  -160.220   -17.660    86.615   -20.709  -164.568 
 3614.000000   -25.089  -139.353    10.237  -162.639   -17.654    84.633   -20.810  -165.220 
 3641.000000   -24.859  -137.299    10.249  -165.010   -17.631    82.631   -20.901  -167.012 
 3668.000000   -24.829  -139.506    10.222  -167.505   -17.667    80.446   -20.838  -170.913 
 3695.000000   -25.304  -140.522    10.218  -169.973   -17.660    78.501   -20.898  -173.383 
 3722.000000   -24.734  -141.316    10.237  -172.705   -17.629    76.272   -20.910  -174.962 
 3749.000000   -23.679  -142.784    10.181  -175.563   -17.635    73.637   -20.307  -176.323 
 3776.000000   -23.696  -146.751    10.150  -177.720   -17.705    71.675   -20.130   179.454 
 3803.000000   -24.421  -153.460    10.068  -179.745   -17.833    70.065   -20.308   172.640 
 3830.000000   -24.486  -151.409    10.107   177.610   -17.747    67.908   -20.606   173.309 
 3857.000000   -23.512  -157.415    10.034   174.550   -17.782    65.122   -20.062   170.506 
 3884.000000   -24.135  -158.426    10.047   172.772   -17.839    63.850   -20.435   164.401 
 3911.000000   -23.804  -156.939    10.030   170.220   -17.843    61.724   -20.117   162.910 
 3938.000000   -23.894  -158.595    10.014   167.790   -17.840    59.725   -19.945   161.267 
 3965.000000   -23.572  -159.483    10.020   165.035   -17.791    57.755   -20.117   161.415 
 3992.000000   -22.682  -164.500     9.967   162.213   -17.845    55.045   -19.673   159.485 
 4019.000000   -22.668  -166.230     9.962   159.981   -17.889    53.138   -19.598   155.792 
 4046.000000   -23.152  -164.905     9.966   157.723   -17.861    51.546   -19.896   152.191 
 4073.000000   -22.561  -170.267     9.885   155.163   -17.970    48.915   -19.160   148.608 
 4100.000000   -22.338  -169.150     9.930   152.529   -17.884    46.944   -19.133   149.215 
 4127.000000   -21.620  -175.706     9.814   150.024   -17.981    44.295   -18.476   147.430 
 4154.000000   -22.092  -177.828     9.785   147.919   -18.075    42.943   -18.709   142.376 
 4181.000000   -22.935  -179.215     9.808   145.713   -18.094    41.202   -19.015   138.473 
 4208.000000   -22.957  -176.858     9.871   143.223   -18.008    39.603   -19.405   137.741 
 4235.000000   -22.200  -178.216     9.823   140.384   -17.993    37.110   -18.976   136.354 
 4262.000000   -21.869  -178.136     9.822   137.814   -17.991    34.904   -18.757   135.378 
 4289.000000   -21.672   177.151     9.776   135.368   -18.024    32.502   -18.609   133.601 
 4316.000000   -21.653   173.569     9.744   132.790   -18.071    30.383   -18.490   131.020 
 4343.000000   -22.140   170.379     9.733   130.747   -18.132    29.033   -18.850   126.596 
 4370.000000   -21.206   171.646     9.750   127.891   -18.048    26.559   -18.602   126.369 
 4397.000000   -20.968   168.870     9.659   125.528   -18.162    24.076   -18.146   121.477 
 4424.000000   -21.619   167.674     9.661   123.424   -18.205    22.446   -18.217   118.175 
 4451.000000   -21.941   162.634     9.643   120.981   -18.234    20.441   -18.198   116.450 
 4478.000000   -20.812   159.265     9.613   118.352   -18.233    17.891   -17.945   115.377 
 4505.000000   -21.141   163.144     9.674   115.857   -18.178    16.811   -18.440   114.016 
 4532.000000   -20.866   162.419     9.650   113.205   -18.194    14.426   -18.200   111.836 
 4559.000000   -19.993   153.115     9.467   110.362   -18.254    10.842   -17.090   109.540 
 4586.000000   -20.996   151.267     9.562   108.773   -18.349    10.368   -17.667   105.179 
 4613.000000   -20.784   153.091     9.598   106.339   -18.290     8.663   -17.747   105.905 
 4640.000000   -20.071   152.872     9.583   103.445   -18.264     6.270   -17.627   105.986 
 4667.000000   -20.153   150.389     9.554   100.914   -18.249     4.095   -17.726   105.650 
 4694.000000   -19.934   142.962     9.444    98.439   -18.345     1.340   -17.313   101.697 
 4721.000000   -20.235   139.000     9.460    96.607   -18.452    -0.122   -17.527    96.221 
 4748.000000   -19.863   141.126     9.482    94.086   -18.425    -1.871   -17.415    95.079 
 4775.000000   -19.234   140.937     9.444    91.154   -18.366    -4.445   -17.010    95.475 
 4802.000000   -19.661   130.318     9.325    89.155   -18.507    -6.843   -16.780    92.960 
 4829.000000   -19.743   133.271     9.450    86.641   -18.433    -8.007   -17.341    92.878 
 4856.000000   -18.768   133.310     9.414    83.477   -18.333   -10.408   -17.183    94.054 
 4883.000000   -18.816   126.711     9.299    81.754   -18.552   -13.136   -16.811    87.118 
 4910.000000   -19.018   125.313     9.284    79.262   -18.587   -15.209   -16.702    84.367 
 4937.000000   -18.831   126.439     9.324    76.577   -18.485   -16.807   -16.731    84.219 
 4964.000000   -18.327   118.303     9.225    74.256   -18.580   -19.707   -16.304    82.056 
 4991.000000   -18.729   119.609     9.298    72.337   -18.671   -20.512   -16.838    79.438 
 5018.000000   -18.574   123.814     9.366    69.578   -18.567   -22.159   -17.078    79.019 
 5045.000000   -18.457   120.138     9.279    66.965   -18.587   -24.749   -16.915    76.316 
 5072.000000   -18.037   118.103     9.273    63.923   -18.506   -26.907   -16.750    76.395 
 5099.000000   -17.434   110.603     9.113    61.550   -18.590   -30.086   -15.978    73.305 
 5126.000000   -17.606   111.197     9.140    59.487   -18.644   -31.720   -15.983    71.307 
 5153.000000   -18.010   103.085     9.005    57.951   -18.891   -34.307   -15.853    65.392 
 5180.000000   -18.159   105.508     9.156    55.111   -18.786   -35.219   -16.368    66.670 
 5207.000000   -18.295   105.663     9.207    52.729   -18.798   -36.493   -16.680    64.898 
 5234.000000   -17.776   103.180     9.140    50.163   -18.813   -39.074   -16.341    62.491 
 5261.000000   -17.107   103.705     9.121    46.940   -18.642   -41.242   -16.039    63.653 
 5288.000000   -17.236    99.307     9.069    44.751   -18.736   -43.620   -15.874    61.511 
 5315.000000   -17.405    88.032     8.870    43.338   -18.976   -47.085   -15.246    56.417 
 5342.000000   -17.442    93.583     9.087    40.449   -18.896   -47.267   -16.083    56.969 
 5369.000000   -16.426    91.098     8.932    37.272   -18.762   -50.635   -15.482    57.058 
 5396.000000   -17.236    88.565     8.960    35.706   -18.959   -52.104   -15.812    51.922 
 5423.000000   -17.714    88.921     9.091    33.735   -19.072   -52.755   -16.255    48.812 
 5450.000000   -16.679    87.849     9.018    30.242   -18.871   -55.279   -15.829    51.724 
 5477.000000   -16.193    83.401     8.890    27.741   -18.879   -58.299   -15.429    49.999 
 5504.000000   -16.364    82.700     8.877    25.507   -18.919   -60.253   -15.470    47.532 
 5531.000000   -16.489    78.914     8.863    23.290   -18.964   -62.450   -15.583    44.347 
 5558.000000   -16.747    76.461     8.913    21.285   -19.083   -64.060   -15.895    41.654 
 5585.000000   -16.230    72.027     8.789    18.706   -19.059   -66.970   -15.306    39.759 
