! Mini-Circuits  
! S2P DATA File Format
! Type: MMIC Amplifier
! Model: ERA-1     Reference Data:RDF-960
! Note: All S Parameters are in dB deg format
! TEST CONDITIONS: INPUT POWER = -15dBm, Icc = 32mA, Vd = 3.33V @Temperature = +25degC
!
# MHz S DB R 50
!    FREQ       dB(S11)   PHS(S11)  dB(S21)   PHS(S21)  dB(S12)   PHS(S12)  dB(S22)   PHS(S22) 
   50.000000   -24.255    -3.782    11.915   174.671   -16.632    -4.133   -46.191    23.092 
   77.000000   -23.680    -4.173    11.941   172.286   -16.646    -6.064   -46.414    35.345 
  104.000000   -23.817    -6.735    11.915   169.568   -16.654    -8.011   -46.372    40.813 
  131.000000   -24.213    -9.208    11.916   167.029   -16.651    -9.899   -46.059    52.430 
  158.000000   -24.279   -11.223    11.903   164.386   -16.652   -12.070   -44.749    57.955 
  185.000000   -24.261   -14.067    11.885   161.824   -16.649   -14.023   -43.706    65.904 
  212.000000   -24.166   -15.537    11.896   159.140   -16.645   -16.097   -43.278    68.754 
  239.000000   -24.164   -18.929    11.879   156.556   -16.643   -18.075   -42.347    63.366 
  266.000000   -24.358   -21.199    11.889   153.782   -16.654   -19.926   -41.678    64.259 
  293.000000   -24.310   -22.998    11.865   151.326   -16.661   -21.840   -41.021    72.126 
  320.000000   -24.328   -24.802    11.879   148.588   -16.654   -23.804   -40.359    75.138 
  347.000000   -24.386   -27.683    11.858   146.142   -16.664   -25.951   -40.311    73.402 
  374.000000   -24.529   -29.657    11.842   143.433   -16.677   -27.918   -39.494    71.409 
  401.000000   -24.712   -30.408    11.820   140.891   -16.659   -29.892   -39.201    74.148 
  428.000000   -24.817   -32.483    11.823   138.314   -16.672   -31.930   -38.132    75.752 
  455.000000   -25.028   -34.546    11.800   135.713   -16.666   -33.896   -37.059    75.203 
  482.000000   -25.172   -36.198    11.814   133.194   -16.675   -35.879   -36.549    76.571 
  509.000000   -25.300   -41.329    11.791   130.563   -16.678   -37.801   -35.630    76.207 
  536.000000   -25.247   -41.126    11.797   127.983   -16.674   -39.944   -35.420    77.321 
  563.000000   -25.671   -43.212    11.763   125.243   -16.690   -41.976   -34.806    76.794 
  590.000000   -25.888   -45.761    11.750   122.730   -16.678   -43.937   -34.042    75.576 
  617.000000   -25.860   -48.680    11.734   120.106   -16.678   -45.917   -33.609    70.811 
  644.000000   -25.858   -49.688    11.723   117.569   -16.677   -47.976   -33.083    69.409 
  671.000000   -26.113   -51.556    11.716   114.920   -16.686   -49.880   -32.676    68.692 
  698.000000   -26.150   -53.804    11.710   112.413   -16.690   -51.962   -31.994    68.805 
  725.000000   -26.407   -54.412    11.697   109.823   -16.699   -53.990   -31.369    69.840 
  752.000000   -26.839   -56.772    11.676   107.268   -16.680   -55.857   -31.339    68.167 
  779.000000   -27.112   -59.692    11.656   104.746   -16.702   -58.007   -30.927    66.166 
  806.000000   -27.331   -58.800    11.649   102.117   -16.692   -60.131   -30.471    63.662 
  833.000000   -27.767   -61.160    11.626    99.574   -16.700   -61.943   -29.886    61.249 
  860.000000   -28.092   -66.412    11.642    97.040   -16.693   -63.920   -29.280    59.773 
  887.000000   -28.338   -66.440    11.598    94.488   -16.694   -65.980   -28.847    59.266 
  914.000000   -28.495   -63.945    11.577    91.951   -16.698   -67.941   -28.606    59.698 
  941.000000   -28.972   -67.961    11.579    89.362   -16.706   -69.971   -28.316    58.987 
  968.000000   -29.152   -66.850    11.564    86.961   -16.720   -71.958   -28.180    57.060 
  995.000000   -29.410   -70.078    11.571    84.196   -16.707   -74.048   -27.941    54.712 
 1022.000000   -29.686   -73.780    11.528    81.613   -16.708   -76.070   -27.614    51.576 
 1049.000000   -29.676   -72.871    11.533    79.109   -16.724   -78.099   -27.296    50.430 
 1076.000000   -30.112   -71.935    11.524    76.579   -16.721   -80.053   -26.932    49.166 
 1103.000000   -30.706   -74.277    11.524    73.942   -16.733   -82.072   -26.495    47.932 
 1130.000000   -30.459   -75.369    11.485    71.430   -16.736   -84.094   -26.548    46.235 
 1157.000000   -30.904   -72.806    11.482    68.880   -16.737   -86.175   -26.293    44.202 
 1184.000000   -31.474   -76.321    11.465    66.243   -16.745   -88.050   -26.069    42.340 
 1211.000000   -32.037   -78.701    11.445    63.837   -16.750   -90.202   -25.695    39.791 
 1238.000000   -32.340   -79.674    11.426    61.288   -16.762   -92.151   -25.358    37.219 
 1265.000000   -32.838   -78.943    11.422    58.803   -16.775   -94.145   -25.170    36.164 
 1292.000000   -33.243   -78.303    11.398    56.134   -16.771   -96.214   -25.020    34.814 
 1319.000000   -33.091   -74.597    11.378    53.620   -16.783   -98.189   -24.849    33.427 
 1346.000000   -33.713   -74.879    11.360    51.132   -16.764  -100.298   -24.679    31.328 
 1373.000000   -34.265   -74.372    11.356    48.584   -16.784  -102.286   -24.410    28.825 
 1400.000000   -34.095   -74.080    11.340    46.082   -16.802  -104.234   -24.308    27.573 
 1427.000000   -34.557   -68.223    11.332    43.510   -16.804  -106.144   -24.092    26.620 
 1454.000000   -35.370   -68.812    11.309    41.139   -16.810  -108.300   -23.974    24.805 
 1481.000000   -35.041   -71.458    11.319    38.597   -16.803  -110.279   -23.920    22.281 
 1508.000000   -35.021   -68.244    11.265    36.004   -16.819  -112.324   -24.049    19.940 
 1535.000000   -35.497   -67.180    11.274    33.482   -16.816  -114.204   -23.910    18.117 
 1562.000000   -35.129   -66.895    11.246    31.011   -16.824  -116.392   -23.734    16.090 
 1589.000000   -35.922   -59.376    11.238    28.426   -16.840  -118.479   -23.552    13.234 
 1616.000000   -36.067   -63.518    11.225    25.892   -16.851  -120.361   -23.598    12.221 
 1643.000000   -36.103   -64.228    11.214    23.404   -16.865  -122.414   -23.572    10.158 
 1670.000000   -35.514   -61.382    11.198    20.863   -16.865  -124.430   -23.542     8.306 
 1697.000000   -36.068   -53.449    11.191    18.345   -16.872  -126.345   -23.311     4.854 
 1724.000000   -36.876   -55.245    11.176    15.792   -16.885  -128.435   -23.097     2.353 
 1751.000000   -35.338   -57.677    11.133    13.303   -16.876  -130.504   -22.969     0.913 
 1778.000000   -34.461   -48.901    11.132    10.830   -16.882  -132.565   -22.822    -0.052 
 1805.000000   -34.486   -51.334    11.121     8.269   -16.905  -134.488   -22.684    -1.731 
 1832.000000   -35.545   -45.730    11.126     5.788   -16.898  -136.610   -22.618    -3.886 
 1859.000000   -35.435   -47.420    11.098     3.430   -16.910  -138.462   -22.572    -7.379 
 1886.000000   -34.801   -47.834    11.068     0.812   -16.931  -140.491   -22.420    -9.169 
 1913.000000   -33.842   -46.103    11.048    -1.783   -16.935  -142.392   -22.277   -10.166 
 1940.000000   -34.205   -44.655    11.045    -4.227   -16.939  -144.474   -22.227   -12.001 
 1967.000000   -33.945   -45.216    11.028    -6.759   -16.945  -146.482   -22.253   -13.108 
 1994.000000   -33.920   -48.935    10.995    -9.104   -16.937  -148.512   -22.327   -14.974 
 2021.000000   -33.548   -49.144    10.995   -11.864   -16.962  -150.466   -22.388   -17.133 
 2048.000000   -32.826   -45.383    10.987   -14.416   -16.967  -152.551   -22.282   -20.117 
 2075.000000   -33.769   -43.240    10.995   -16.961   -16.972  -154.584   -22.150   -22.154 
 2102.000000   -33.432   -48.949    10.953   -19.222   -16.999  -156.712   -22.050   -23.807 
 2129.000000   -32.769   -55.715    10.926   -21.834   -16.981  -158.692   -22.095   -25.280 
 2156.000000   -32.379   -52.621    10.927   -24.209   -17.017  -160.638   -22.364   -27.031 
 2183.000000   -32.792   -52.075    10.924   -26.825   -17.014  -162.691   -22.384   -29.888 
 2210.000000   -32.592   -49.788    10.885   -29.299   -17.035  -164.711   -22.300   -32.764 
 2237.000000   -32.341   -50.796    10.876   -31.982   -17.039  -166.703   -22.236   -36.772 
 2264.000000   -32.203   -53.819    10.866   -34.318   -17.056  -168.709   -22.036   -38.683 
 2291.000000   -31.758   -56.797    10.840   -36.727   -17.055  -170.683   -21.931   -40.320 
 2318.000000   -32.038   -53.520    10.829   -39.336   -17.063  -172.730   -21.972   -41.975 
 2345.000000   -32.378   -55.378    10.816   -41.689   -17.066  -174.651   -22.084   -43.567 
 2372.000000   -31.754   -58.739    10.815   -44.334   -17.073  -176.827   -22.106   -45.964 
 2399.000000   -31.454   -61.437    10.791   -46.775   -17.090  -179.008   -21.963   -48.989 
 2426.000000   -31.532   -57.439    10.771   -49.187   -17.066   179.104   -22.009   -50.953 
 2453.000000   -31.226   -54.495    10.771   -51.746   -17.081   177.008   -21.866   -52.034 
 2480.000000   -31.255   -63.860    10.730   -54.150   -17.127   175.146   -21.876   -55.486 
 2507.000000   -30.682   -64.525    10.705   -56.565   -17.131   173.170   -22.006   -56.853 
 2534.000000   -30.326   -65.096    10.695   -59.290   -17.128   171.027   -22.006   -58.907 
 2561.000000   -30.675   -63.680    10.676   -61.744   -17.157   169.005   -22.067   -62.047 
 2588.000000   -30.704   -67.186    10.648   -64.164   -17.163   166.917   -22.044   -63.927 
 2615.000000   -30.446   -73.712    10.631   -66.590   -17.190   164.902   -22.066   -67.376 
 2642.000000   -30.049   -77.540    10.619   -69.121   -17.182   163.170   -22.286   -68.953 
 2669.000000   -30.134   -72.913    10.619   -71.554   -17.185   161.106   -22.272   -71.018 
 2696.000000   -30.230   -68.162    10.592   -74.054   -17.187   158.959   -22.318   -73.921 
 2723.000000   -30.139   -69.815    10.578   -76.583   -17.199   156.869   -22.237   -76.576 
 2750.000000   -29.792   -70.408    10.564   -79.325   -17.209   154.709   -22.066   -77.923 
 2777.000000   -28.694   -76.878    10.503   -81.680   -17.294   152.573   -21.776   -81.482 
 2804.000000   -28.688   -74.438    10.521   -84.287   -17.259   150.445   -21.916   -82.884 
 2831.000000   -29.498   -82.864    10.461   -86.693   -17.369   148.790   -22.019   -90.205 
 2858.000000   -30.283   -82.941    10.476   -88.936   -17.295   146.862   -22.322   -91.021 
 2885.000000   -29.267   -82.656    10.461   -91.450   -17.306   144.700   -22.083   -93.182 
 2912.000000   -29.505   -83.147    10.441   -93.852   -17.302   143.054   -22.228   -95.243 
 2939.000000   -29.063   -80.182    10.433   -96.514   -17.316   140.892   -22.156   -96.618 
 2966.000000   -29.388   -82.521    10.408   -98.970   -17.319   138.718   -22.283   -98.659 
 2993.000000   -29.966   -87.741    10.399  -101.348   -17.348   136.729   -22.372  -100.709 
 3020.000000   -29.353   -94.423    10.363  -103.841   -17.388   134.709   -22.288  -104.583 
 3047.000000   -29.526   -90.214    10.354  -106.175   -17.369   132.844   -22.415  -107.451 
 3074.000000   -28.564   -89.761    10.322  -108.787   -17.386   130.555   -21.962  -108.854 
 3101.000000   -29.141   -91.448    10.328  -111.089   -17.391   128.997   -22.373  -111.759 
 3128.000000   -28.902   -91.226    10.316  -113.673   -17.379   126.796   -22.374  -111.887 
 3155.000000   -28.244   -95.077    10.288  -116.308   -17.400   124.447   -22.200  -115.476 
 3182.000000   -28.626   -96.245    10.261  -118.698   -17.458   122.383   -22.354  -120.176 
 3209.000000   -28.896   -99.012    10.252  -121.148   -17.487   120.555   -22.365  -125.346 
 3236.000000   -29.041   -98.948    10.235  -123.606   -17.455   118.688   -22.452  -127.566 
 3263.000000   -27.888  -100.871    10.252  -126.225   -17.467   116.328   -21.990  -127.813 
 3290.000000   -27.847  -107.336    10.162  -128.275   -17.574   114.618   -21.955  -133.187 
 3317.000000   -28.295  -100.352    10.190  -130.859   -17.509   112.753   -22.434  -133.750 
 3344.000000   -28.428  -102.017    10.178  -133.412   -17.509   110.557   -22.480  -135.129 
 3371.000000   -27.871  -103.854    10.157  -135.850   -17.539   108.594   -22.418  -138.759 
 3398.000000   -26.707  -102.824    10.159  -138.430   -17.509   106.145   -21.985  -140.339 
 3425.000000   -27.625  -108.627    10.104  -140.568   -17.605   104.504   -21.841  -146.287 
 3452.000000   -27.707  -107.279    10.104  -143.179   -17.574   102.785   -22.073  -146.675 
 3479.000000   -26.954  -109.526    10.111  -145.786   -17.555   100.274   -21.974  -145.751 
 3506.000000   -26.249  -112.044    10.071  -148.494   -17.549    97.832   -21.750  -146.331 
 3533.000000   -26.514  -126.396     9.947  -150.527   -17.754    96.148   -21.498  -157.530 
 3560.000000   -27.071  -114.062    10.037  -152.968   -17.636    94.557   -22.172  -157.444 
 3587.000000   -26.668  -121.548     9.964  -155.601   -17.693    92.124   -21.642  -160.464 
 3614.000000   -26.597  -122.629     9.970  -157.986   -17.697    90.398   -21.818  -161.117 
 3641.000000   -26.196  -120.929     9.981  -160.309   -17.684    88.355   -21.833  -162.718 
 3668.000000   -26.149  -122.548     9.951  -162.746   -17.708    86.236   -21.809  -166.896 
 3695.000000   -26.648  -122.500     9.936  -165.312   -17.710    84.374   -21.889  -169.430 
 3722.000000   -26.123  -122.648     9.972  -167.894   -17.689    82.266   -21.941  -171.143 
 3749.000000   -24.979  -125.305     9.921  -170.728   -17.672    79.599   -21.333  -171.722 
 3776.000000   -25.137  -130.842     9.877  -172.838   -17.772    77.858   -21.133  -176.790 
 3803.000000   -25.553  -135.671     9.816  -174.914   -17.865    75.934   -21.133   178.208 
 3830.000000   -25.791  -134.044     9.848  -177.543   -17.806    74.101   -21.563   178.071 
 3857.000000   -24.694  -141.888     9.780   179.578   -17.844    71.301   -20.955   175.325 
 3884.000000   -25.335  -141.836     9.794   177.872   -17.909    70.219   -21.371   168.846 
 3911.000000   -24.790  -139.914     9.783   175.241   -17.897    68.059   -21.028   167.569 
 3938.000000   -24.782  -140.102     9.749   172.855   -17.897    66.079   -20.806   166.166 
 3965.000000   -24.652  -140.518     9.766   170.199   -17.855    64.170   -21.043   165.944 
 3992.000000   -23.748  -145.119     9.729   167.456   -17.886    61.604   -20.643   165.395 
 4019.000000   -23.793  -148.463     9.690   165.186   -17.942    59.631   -20.522   160.422 
 4046.000000   -24.296  -146.228     9.720   163.082   -17.937    58.213   -20.898   156.495 
 4073.000000   -23.335  -150.386     9.641   160.186   -17.954    55.242   -20.059   155.203 
 4100.000000   -23.380  -152.248     9.651   157.850   -17.982    53.487   -19.963   153.930 
 4127.000000   -22.876  -158.663     9.564   155.378   -18.045    51.211   -19.501   152.729 
 4154.000000   -23.155  -160.575     9.533   153.333   -18.123    49.588   -19.682   147.623 
 4181.000000   -23.984  -160.720     9.559   151.187   -18.154    48.107   -20.013   143.521 
 4208.000000   -23.908  -158.149     9.616   148.856   -18.077    46.501   -20.454   142.471 
 4235.000000   -23.019  -161.263     9.558   145.929   -18.086    44.059   -19.934   141.436 
 4262.000000   -22.522  -160.556     9.551   143.401   -18.060    41.860   -19.687   141.043 
 4289.000000   -22.399  -165.624     9.514   140.970   -18.115    39.411   -19.505   138.612 
 4316.000000   -22.514  -167.981     9.493   138.513   -18.130    37.541   -19.470   136.827 
 4343.000000   -23.003  -170.896     9.480   136.467   -18.207    36.024   -19.795   131.882 
 4370.000000   -21.997  -170.805     9.486   133.643   -18.137    33.775   -19.660   131.745 
 4397.000000   -21.812  -172.829     9.410   131.315   -18.228    31.397   -19.211   127.099 
 4424.000000   -22.344  -173.563     9.414   129.176   -18.287    29.692   -19.200   123.833 
 4451.000000   -22.685  -179.197     9.403   126.820   -18.330    27.767   -19.143   122.136 
 4478.000000   -21.435   178.919     9.391   123.937   -18.244    25.342   -18.911   123.469 
 4505.000000   -21.734  -179.747     9.417   121.752   -18.292    24.239   -19.462   120.208 
 4532.000000   -21.202   179.346     9.382   119.134   -18.256    21.848   -19.185   118.499 
 4559.000000   -20.450   172.706     9.263   116.206   -18.288    18.670   -18.266   116.998 
 4586.000000   -21.368   169.616     9.303   114.723   -18.444    17.851   -18.621   111.367 
 4613.000000   -21.162   171.057     9.337   112.391   -18.416    16.294   -18.694   111.866 
 4640.000000   -20.279   171.344     9.322   109.431   -18.338    13.910   -18.513   112.798 
 4667.000000   -20.495   169.353     9.281   106.971   -18.358    11.778   -18.641   111.863 
 4694.000000   -20.335   162.147     9.183   104.470   -18.412     8.952   -18.202   108.779 
 4721.000000   -20.574   158.061     9.179   102.586   -18.525     7.384   -18.359   103.108 
 4748.000000   -20.425   158.468     9.178   100.334   -18.590     5.817   -18.266   100.624 
 4775.000000   -19.657   160.658     9.195    97.457   -18.467     3.575   -18.077   102.145 
 4802.000000   -20.151   150.920     9.082    95.311   -18.593     0.950   -17.732    99.219 
 4829.000000   -20.341   154.096     9.196    93.061   -18.550    -0.034   -18.339    98.999 
 4856.000000   -19.212   153.129     9.165    89.803   -18.438    -2.412   -18.171   101.120 
 4883.000000   -19.188   146.950     9.041    87.932   -18.608    -5.233   -17.680    94.601 
 4910.000000   -19.250   146.350     9.028    85.344   -18.627    -7.424   -17.499    92.100 
 4937.000000   -19.620   146.439     9.056    83.170   -18.636    -8.506   -17.691    89.716 
 4964.000000   -19.096   138.222     8.978    80.761   -18.696   -11.381   -17.306    88.587 
 4991.000000   -19.405   138.792     9.031    78.947   -18.777   -12.431   -17.810    85.807 
 5018.000000   -19.145   143.221     9.104    76.137   -18.713   -13.878   -18.085    85.858 
 5045.000000   -18.860   139.677     9.004    73.422   -18.692   -16.576   -17.839    83.626 
 5072.000000   -18.679   137.612     9.027    70.667   -18.648   -18.344   -17.798    83.346 
 5099.000000   -17.742   128.922     8.837    67.919   -18.645   -21.973   -16.718    81.973 
 5126.000000   -18.164   130.315     8.903    66.164   -18.744   -23.075   -17.044    79.017 
 5153.000000   -18.383   124.883     8.792    64.262   -18.910   -25.631   -16.943    74.595 
 5180.000000   -18.868   126.379     8.935    61.988   -18.923   -26.314   -17.633    73.953 
 5207.000000   -18.701   123.005     8.883    59.505   -18.959   -28.626   -17.465    71.919 
 5234.000000   -18.218   122.800     8.886    56.997   -18.945   -30.486   -17.358    69.928 
 5261.000000   -17.721   123.854     8.892    54.089   -18.832   -32.407   -17.172    70.310 
 5288.000000   -17.729   118.799     8.798    51.674   -18.889   -34.988   -16.785    68.636 
 5315.000000   -17.968   108.598     8.608    50.061   -19.060   -38.617   -16.130    64.302 
 5342.000000   -18.099   114.186     8.832    47.462   -19.056   -38.548   -17.123    64.018 
 5369.000000   -17.155   111.859     8.723    44.371   -18.904   -41.320   -16.691    64.897 
 5396.000000   -18.060   107.972     8.695    43.037   -19.172   -43.409   -16.855    57.576 
 5423.000000   -18.482   107.588     8.779    41.099   -19.273   -44.426   -17.184    54.695 
 5450.000000   -17.372   108.768     8.801    37.343   -19.027   -45.977   -17.010    59.728 
 5477.000000   -16.779   103.579     8.662    34.756   -18.985   -49.027   -16.528    58.649 
 5504.000000   -17.034   100.772     8.613    32.756   -19.097   -51.425   -16.430    55.365 
 5531.000000   -17.110    98.953     8.619    30.363   -19.122   -53.286   -16.624    52.874 
 5558.000000   -17.382    95.974     8.662    28.446   -19.247   -54.894   -16.982    49.757 
 5585.000000   -16.909    92.150     8.571    25.948   -19.217   -57.512   -16.521    48.151 
