! Mini-Circuits  
! S2P DATA File Format
! Type: MMIC Amplifier
! Model: ERA-1     Reference Data:RDF-960
! Note: All S Parameters are in dB deg format
! TEST CONDITIONS: INPUT POWER = -15dBm, Icc = 48mA, Vd = 3.38V @Temperature = +85degC
!
# MHz S DB R 50
!    FREQ       dB(S11)   PHS(S11)  dB(S21)   PHS(S21)  dB(S12)   PHS(S12)  dB(S22)   PHS(S22) 
   50.000000   -30.707    -2.006    12.324   174.609   -16.954    -4.302   -29.717   171.110 
   77.000000   -29.646     1.272    12.358   172.087   -16.942    -5.910   -29.233   166.686 
  104.000000   -30.187    -2.368    12.335   169.522   -16.962    -7.917   -28.962   163.875 
  131.000000   -31.538    -3.155    12.306   166.887   -16.965    -9.749   -28.522   159.539 
  158.000000   -31.698    -4.965    12.296   164.320   -16.981   -11.909   -28.284   155.500 
  185.000000   -31.896    -8.457    12.297   161.688   -16.967   -13.839   -28.014   151.073 
  212.000000   -31.880   -11.584    12.291   159.097   -16.965   -15.869   -27.776   147.980 
  239.000000   -31.633   -18.274    12.294   156.424   -16.959   -17.828   -27.762   144.197 
  266.000000   -31.731   -19.735    12.271   153.763   -16.969   -19.666   -27.747   141.013 
  293.000000   -31.520   -21.172    12.260   151.141   -16.971   -21.582   -27.445   138.746 
  320.000000   -31.199   -19.893    12.263   148.520   -16.977   -23.510   -27.264   136.581 
  347.000000   -31.171   -23.272    12.248   146.024   -16.977   -25.592   -27.338   134.700 
  374.000000   -31.405   -23.087    12.223   143.321   -16.994   -27.557   -27.302   131.934 
  401.000000   -31.687   -19.473    12.204   140.847   -16.992   -29.484   -27.158   130.431 
  428.000000   -31.816   -20.385    12.207   138.120   -16.990   -31.413   -26.918   127.573 
  455.000000   -32.333   -20.723    12.180   135.602   -16.983   -33.356   -26.657   124.177 
  482.000000   -32.890   -20.268    12.184   133.125   -16.988   -35.353   -26.470   121.938 
  509.000000   -33.453   -29.102    12.160   130.364   -16.982   -37.278   -26.251   118.425 
  536.000000   -33.082   -26.431    12.161   127.907   -16.994   -39.303   -26.114   116.466 
  563.000000   -33.876   -25.793    12.120   125.258   -17.005   -41.286   -25.984   113.433 
  590.000000   -34.548   -27.619    12.116   122.633   -16.995   -43.289   -25.786   110.016 
  617.000000   -34.343   -33.905    12.105   120.116   -16.995   -45.173   -25.736   106.072 
  644.000000   -33.932   -34.480    12.085   117.420   -16.997   -47.173   -25.598   102.849 
  671.000000   -34.014   -34.978    12.085   114.795   -17.001   -49.096   -25.475   100.138 
  698.000000   -33.994   -37.185    12.045   112.346   -17.014   -51.154   -25.195    97.522 
  725.000000   -34.426   -33.128    12.050   109.710   -17.023   -53.127   -24.883    95.676 
  752.000000   -34.853   -34.090    12.032   107.218   -17.017   -55.111   -24.830    93.584 
  779.000000   -35.211   -35.595    12.009   104.647   -17.024   -57.061   -24.671    90.756 
  806.000000   -34.945   -29.626    12.009   102.088   -17.023   -58.914   -24.492    87.664 
  833.000000   -35.881   -27.389    11.979    99.506   -17.036   -60.909   -24.213    84.477 
  860.000000   -37.200   -32.553    11.983    96.852   -17.028   -63.025   -23.890    81.701 
  887.000000   -37.096   -27.123    11.954    94.389   -17.048   -65.021   -23.648    79.754 
  914.000000   -36.167   -19.349    11.931    91.927   -17.055   -66.943   -23.483    78.477 
  941.000000   -37.338   -18.454    11.922    89.242   -17.047   -68.915   -23.308    76.574 
  968.000000   -36.714   -14.319    11.903    86.904   -17.042   -70.899   -23.238    74.279 
  995.000000   -37.327   -16.201    11.900    84.208   -17.039   -72.842   -23.165    71.507 
 1022.000000   -37.916   -16.622    11.859    81.701   -17.065   -74.792   -23.029    68.321 
 1049.000000   -36.580   -15.258    11.865    79.101   -17.068   -76.737   -22.844    66.433 
 1076.000000   -36.010    -9.104    11.841    76.570   -17.054   -78.821   -22.661    64.295 
 1103.000000   -36.362    -5.570    11.832    73.974   -17.084   -80.670   -22.422    62.285 
 1130.000000   -35.662   -10.655    11.817    71.403   -17.091   -82.711   -22.476    60.359 
 1157.000000   -34.685    -5.497    11.810    68.856   -17.078   -84.654   -22.377    58.021 
 1184.000000   -35.054    -3.299    11.780    66.288   -17.094   -86.619   -22.236    55.698 
 1211.000000   -35.252    -0.436    11.767    63.841   -17.099   -88.575   -22.031    52.960 
 1238.000000   -34.924    -0.976    11.745    61.315   -17.088   -90.603   -21.847    50.052 
 1265.000000   -34.386     0.738    11.742    58.853   -17.106   -92.564   -21.714    48.559 
 1292.000000   -33.887     2.003    11.709    56.257   -17.104   -94.591   -21.624    46.760 
 1319.000000   -32.863    -0.180    11.707    53.721   -17.115   -96.559   -21.527    44.739 
 1346.000000   -32.831     1.760    11.671    51.238   -17.124   -98.516   -21.449    42.258 
 1373.000000   -32.669     2.449    11.669    48.686   -17.141  -100.558   -21.281    39.359 
 1400.000000   -32.313    -0.701    11.645    46.157   -17.125  -102.422   -21.208    37.621 
 1427.000000   -31.471     1.061    11.632    43.591   -17.132  -104.440   -21.059    36.042 
 1454.000000   -31.540     2.235    11.612    41.228   -17.149  -106.294   -20.999    34.010 
 1481.000000   -31.461    -2.604    11.615    38.699   -17.168  -108.363   -20.992    31.515 
 1508.000000   -31.119    -4.097    11.570    36.143   -17.162  -110.312   -21.020    29.281 
 1535.000000   -30.998    -4.397    11.569    33.650   -17.176  -112.309   -20.925    27.096 
 1562.000000   -30.641    -6.999    11.550    31.146   -17.176  -114.362   -20.807    24.804 
 1589.000000   -30.124    -4.449    11.538    28.617   -17.191  -116.231   -20.698    22.098 
 1616.000000   -30.237    -7.273    11.511    26.104   -17.197  -118.190   -20.705    20.699 
 1643.000000   -30.123    -9.572    11.506    23.583   -17.201  -120.223   -20.714    18.603 
 1670.000000   -29.639   -11.969    11.481    21.065   -17.202  -122.216   -20.721    16.526 
 1697.000000   -29.308    -9.266    11.480    18.615   -17.220  -124.206   -20.577    13.183 
 1724.000000   -29.525    -9.528    11.453    16.025   -17.227  -126.211   -20.432    10.533 
 1751.000000   -28.967   -14.982    11.403    13.559   -17.230  -128.098   -20.335     8.608 
 1778.000000   -28.163   -14.665    11.409    11.136   -17.225  -130.133   -20.184     7.290 
 1805.000000   -28.088   -16.840    11.396     8.491   -17.252  -132.077   -20.104     5.179 
 1832.000000   -28.305   -14.819    11.393     6.103   -17.247  -134.056   -20.095     2.778 
 1859.000000   -28.240   -16.343    11.369     3.692   -17.271  -135.936   -20.067    -0.555 
 1886.000000   -27.905   -18.560    11.334     1.055   -17.269  -138.004   -19.973    -2.466 
 1913.000000   -27.399   -20.784    11.310    -1.455   -17.302  -139.880   -19.835    -4.080 
 1940.000000   -27.447   -20.654    11.301    -3.810   -17.299  -141.911   -19.829    -6.251 
 1967.000000   -27.372   -22.027    11.286    -6.374   -17.301  -143.838   -19.809    -7.596 
 1994.000000   -27.404   -25.058    11.259    -8.779   -17.299  -145.793   -19.868    -9.852 
 2021.000000   -27.239   -27.112    11.264   -11.356   -17.315  -147.776   -19.911   -12.082 
 2048.000000   -26.855   -27.507    11.244   -13.970   -17.330  -149.867   -19.836   -15.173 
 2075.000000   -27.181   -26.158    11.252   -16.515   -17.321  -151.844   -19.744   -17.089 
 2102.000000   -27.153   -30.482    11.214   -18.834   -17.328  -153.814   -19.673   -19.069 
 2129.000000   -27.003   -35.930    11.198   -21.331   -17.335  -155.718   -19.711   -20.729 
 2156.000000   -26.673   -36.183    11.168   -23.717   -17.355  -157.652   -19.908   -22.509 
 2183.000000   -26.780   -36.709    11.177   -26.427   -17.372  -159.753   -19.964   -25.184 
 2210.000000   -26.604   -37.350    11.125   -28.863   -17.370  -161.762   -19.925   -28.200 
 2237.000000   -26.429   -39.218    11.122   -31.453   -17.401  -163.607   -19.874   -32.038 
 2264.000000   -26.463   -41.806    11.103   -33.791   -17.400  -165.535   -19.720   -34.015 
 2291.000000   -26.199   -43.995    11.071   -36.169   -17.414  -167.654   -19.613   -35.860 
 2318.000000   -26.369   -43.622    11.058   -38.777   -17.421  -169.534   -19.642   -37.681 
 2345.000000   -26.543   -45.712    11.056   -41.192   -17.406  -171.480   -19.729   -39.448 
 2372.000000   -26.239   -48.973    11.050   -43.796   -17.424  -173.628   -19.740   -41.773 
 2399.000000   -26.076   -51.234    11.018   -46.211   -17.434  -175.585   -19.648   -44.792 
 2426.000000   -26.099   -50.597    10.997   -48.579   -17.446  -177.533   -19.667   -46.814 
 2453.000000   -25.940   -50.513    10.984   -51.156   -17.430  -179.520   -19.577   -48.332 
 2480.000000   -25.920   -56.655    10.943   -53.531   -17.512   178.617   -19.565   -51.589 
 2507.000000   -25.649   -58.473    10.927   -55.944   -17.495   176.685   -19.678   -52.932 
 2534.000000   -25.502   -59.520    10.919   -58.648   -17.505   174.521   -19.691   -55.090 
 2561.000000   -25.757   -59.642    10.905   -61.070   -17.519   172.643   -19.731   -58.021 
 2588.000000   -25.815   -62.766    10.875   -63.573   -17.520   170.476   -19.706   -60.116 
 2615.000000   -25.761   -67.610    10.844   -65.923   -17.564   168.568   -19.726   -63.401 
 2642.000000   -25.576   -71.318    10.837   -68.349   -17.561   166.809   -19.917   -65.127 
 2669.000000   -25.490   -69.164    10.833   -70.712   -17.553   164.867   -19.898   -67.154 
 2696.000000   -25.579   -67.231    10.815   -73.380   -17.544   162.742   -19.900   -70.081 
 2723.000000   -25.598   -68.577    10.795   -75.883   -17.560   160.534   -19.812   -72.618 
 2750.000000   -25.519   -70.083    10.785   -78.498   -17.569   158.505   -19.704   -74.340 
 2777.000000   -24.689   -74.338    10.712   -80.919   -17.654   156.461   -19.455   -77.290 
 2804.000000   -24.735   -74.963    10.743   -83.445   -17.621   154.559   -19.559   -79.215 
 2831.000000   -25.233   -79.611    10.669   -85.931   -17.722   152.736   -19.643   -84.750 
 2858.000000   -25.766   -81.468    10.683   -88.091   -17.655   150.852   -19.906   -86.030 
 2885.000000   -25.258   -82.691    10.677   -90.658   -17.670   148.748   -19.719   -88.315 
 2912.000000   -25.374   -83.923    10.637   -92.948   -17.667   147.118   -19.828   -90.301 
 2939.000000   -25.140   -83.086    10.624   -95.644   -17.676   145.030   -19.749   -91.804 
 2966.000000   -25.299   -84.851    10.617   -98.040   -17.683   143.016   -19.850   -93.455 
 2993.000000   -25.591   -89.849    10.596  -100.399   -17.705   141.035   -19.903   -95.525 
 3020.000000   -25.333   -97.514    10.539  -102.793   -17.766   139.157   -20.076  -100.381 
 3047.000000   -25.366   -93.491    10.555  -105.201   -17.715   137.083   -20.083  -101.496 
 3074.000000   -24.943   -93.524    10.533  -107.766   -17.727   134.915   -19.789  -103.247 
 3101.000000   -25.263   -96.635    10.509  -110.052   -17.750   133.426   -20.063  -106.141 
 3128.000000   -25.098   -97.319    10.502  -112.609   -17.744   131.245   -20.025  -106.455 
 3155.000000   -24.614   -99.991    10.485  -115.271   -17.752   128.941   -19.937  -109.396 
 3182.000000   -24.732  -103.263    10.434  -117.582   -17.834   126.911   -20.046  -113.977 
 3209.000000   -25.119  -104.678    10.448  -119.963   -17.835   125.176   -20.248  -117.606 
 3236.000000   -25.075  -106.148    10.421  -122.525   -17.824   123.341   -20.206  -119.897 
 3263.000000   -24.465  -107.177    10.413  -125.062   -17.819   120.976   -19.867  -121.041 
 3290.000000   -24.205  -112.048    10.342  -127.220   -17.924   119.351   -19.763  -125.452 
 3317.000000   -24.613  -108.714    10.362  -129.686   -17.862   117.481   -20.125  -126.338 
 3344.000000   -24.825  -110.358    10.347  -132.284   -17.847   115.453   -20.182  -127.451 
 3371.000000   -24.605  -112.795    10.322  -134.636   -17.884   113.438   -20.184  -130.944 
 3398.000000   -23.923  -111.816    10.321  -137.249   -17.871   111.041   -19.864  -132.611 
 3425.000000   -24.212  -118.039    10.254  -139.330   -17.961   109.259   -19.744  -137.704 
 3452.000000   -24.395  -118.381    10.264  -141.835   -17.933   107.606   -19.908  -138.505 
 3479.000000   -23.991  -118.393    10.272  -144.492   -17.913   105.317   -19.845  -137.700 
 3506.000000   -23.411  -120.092    10.256  -147.134   -17.910   102.807   -19.634  -138.788 
 3533.000000   -23.174  -129.775    10.130  -149.355   -18.098   101.077   -19.493  -147.483 
 3560.000000   -24.266  -124.851    10.199  -151.565   -18.019    99.936   -20.119  -149.065 
 3587.000000   -23.577  -127.954    10.139  -154.276   -18.035    97.346   -19.627  -150.578 
 3614.000000   -23.672  -130.609    10.135  -156.533   -18.042    95.595   -19.761  -151.989 
 3641.000000   -23.491  -129.600    10.138  -158.929   -18.027    93.757   -19.841  -153.367 
 3668.000000   -23.337  -131.271    10.111  -161.301   -18.070    91.594   -19.765  -157.155 
 3695.000000   -23.806  -132.688    10.102  -163.843   -18.068    89.747   -19.946  -159.486 
 3722.000000   -23.571  -133.182    10.132  -166.417   -18.040    87.605   -19.969  -161.333 
 3749.000000   -22.814  -133.184    10.080  -169.194   -17.999    85.191   -19.580  -161.710 
 3776.000000   -22.537  -141.566     9.994  -171.334   -18.192    83.104   -19.168  -168.223 
 3803.000000   -22.989  -143.368     9.968  -173.379   -18.218    81.512   -19.432  -171.223 
 3830.000000   -23.500  -143.227     9.997  -175.771   -18.179    79.885   -19.889  -172.383 
 3857.000000   -22.371  -146.806     9.932  -178.836   -18.164    76.939   -19.332  -173.663 
 3884.000000   -22.852  -149.291     9.939   179.347   -18.246    75.840   -19.794  -179.477 
 3911.000000   -22.254  -147.926     9.910   176.702   -18.240    73.448   -19.358   179.020 
 3938.000000   -22.583  -147.190     9.912   174.461   -18.222    71.826   -19.343   177.102 
 3965.000000   -22.546  -150.541     9.881   171.904   -18.239    69.915   -19.383   175.612 
 3992.000000   -21.896  -152.353     9.868   169.129   -18.236    67.429   -19.176   175.073 
 4019.000000   -21.704  -154.643     9.833   166.802   -18.293    65.420   -19.104   171.004 
 4046.000000   -22.283  -154.531     9.842   164.791   -18.290    64.134   -19.479   167.108 
 4073.000000   -21.655  -155.110     9.808   161.936   -18.291    61.519   -18.957   165.850 
 4100.000000   -21.525  -158.175     9.784   159.516   -18.318    59.515   -18.708   163.828 
 4127.000000   -21.476  -163.992     9.715   157.469   -18.418    57.665   -18.562   160.388 
 4154.000000   -21.486  -165.602     9.663   155.265   -18.487    55.915   -18.530   157.035 
 4181.000000   -21.873  -165.176     9.703   152.903   -18.479    54.069   -18.854   155.221 
 4208.000000   -22.148  -166.724     9.713   150.747   -18.471    52.594   -19.118   152.268 
 4235.000000   -21.308  -166.791     9.689   147.663   -18.419    50.113   -18.766   152.252 
 4262.000000   -21.210  -166.603     9.689   145.377   -18.422    48.299   -18.687   150.286 
 4289.000000   -20.660  -169.968     9.631   142.758   -18.460    45.582   -18.275   148.033 
 4316.000000   -21.130  -172.532     9.615   140.494   -18.483    44.144   -18.511   145.992 
 4343.000000   -21.517  -177.584     9.581   138.588   -18.609    42.487   -18.685   140.609 
 4370.000000   -20.715  -176.038     9.581   135.797   -18.521    40.344   -18.611   140.300 
 4397.000000   -20.473  -176.865     9.517   133.412   -18.583    38.032   -18.311   136.417 
 4424.000000   -20.937  -177.909     9.520   131.281   -18.627    36.296   -18.316   133.104 
 4451.000000   -21.095   177.288     9.509   128.775   -18.654    34.393   -18.232   131.588 
 4478.000000   -20.449   178.189     9.550   126.156   -18.569    32.454   -18.259   132.904 
 4505.000000   -20.753   175.306     9.508   124.134   -18.704    30.958   -18.497   127.673 
 4532.000000   -20.152   178.454     9.518   121.322   -18.590    28.697   -18.338   127.822 
 4559.000000   -19.857   173.436     9.426   118.648   -18.645    25.911   -17.750   124.492 
 4586.000000   -20.364   168.916     9.416   116.944   -18.789    24.686   -17.848   119.980 
 4613.000000   -20.140   168.571     9.422   114.580   -18.775    23.132   -17.789   120.122 
 4640.000000   -19.477   171.767     9.458   111.703   -18.672    20.972   -17.783   121.756 
 4667.000000   -19.150   169.352     9.393   108.877   -18.615    18.387   -17.580   121.950 
 4694.000000   -19.421   164.013     9.319   106.719   -18.724    16.206   -17.552   117.481 
 4721.000000   -19.716   159.888     9.316   104.911   -18.849    14.613   -17.800   111.991 
 4748.000000   -18.887   157.090     9.223   102.223   -18.859    11.942   -17.213   110.600 
 4775.000000   -19.170   162.577     9.331    99.979   -18.816    11.183   -17.562   109.836 
 4802.000000   -19.220   154.099     9.200    97.601   -18.894     8.193   -17.106   107.786 
 4829.000000   -19.613   155.621     9.301    95.365   -18.881     7.351   -17.675   107.712 
 4856.000000   -18.868   155.593     9.308    92.313   -18.767     5.164   -17.691   109.229 
 4883.000000   -18.542   149.321     9.158    90.167   -18.888     2.223   -17.205   103.348 
 4910.000000   -18.549   149.965     9.162    87.583   -18.880     0.244   -17.170   101.575 
 4937.000000   -19.194   141.323     9.033    86.074   -19.112    -2.018   -16.781    94.623 
 4964.000000   -18.630   141.621     9.106    83.179   -18.998    -3.500   -17.005    96.617 
 4991.000000   -19.041   137.196     9.059    81.790   -19.227    -5.257   -17.196    91.359 
 5018.000000   -18.789   144.661     9.201    78.716   -19.039    -6.157   -17.679    93.986 
 5045.000000   -18.479   142.083     9.118    75.921   -19.016    -8.799   -17.491    91.873 
 5072.000000   -18.390   140.487     9.131    73.286   -18.981   -10.459   -17.502    90.810 
 5099.000000   -17.486   135.576     9.020    70.335   -18.915   -13.645   -16.674    90.186 
 5126.000000   -17.883   133.999     9.025    68.719   -19.069   -15.023   -16.846    86.054 
 5153.000000   -18.651   123.554     8.850    67.931   -19.491   -18.068   -16.603    76.555 
 5180.000000   -18.733   129.240     9.029    64.864   -19.313   -18.366   -17.318    79.413 
 5207.000000   -18.461   127.804     9.014    62.151   -19.262   -20.259   -17.325    79.254 
 5234.000000   -17.874   124.866     8.930    59.662   -19.259   -22.926   -16.874    76.928 
 5261.000000   -17.753   126.248     8.961    57.118   -19.240   -24.459   -16.873    75.497 
 5288.000000   -17.145   121.463     8.810    54.139   -19.163   -27.669   -16.196    75.469 
 5315.000000   -17.482   116.360     8.755    52.156   -19.254   -29.964   -16.004    73.262 
 5342.000000   -18.070   120.369     8.964    50.174   -19.353   -29.787   -17.027    71.736 
 5369.000000   -17.123   117.577     8.837    47.126   -19.213   -32.673   -16.537    72.191 
 5396.000000   -17.597   112.012     8.736    45.460   -19.389   -35.542   -16.391    65.701 
 5423.000000   -18.114   112.674     8.861    43.504   -19.518   -35.981   -16.954    63.521 
 5450.000000   -17.675   111.578     8.860    40.654   -19.435   -37.659   -16.828    64.625 
 5477.000000   -16.863   110.157     8.811    37.542   -19.284   -40.093   -16.475    66.148 
 5504.000000   -16.456   104.709     8.624    35.113   -19.286   -43.550   -15.918    62.811 
 5531.000000   -17.203   102.832     8.690    33.493   -19.474   -44.926   -16.476    59.141 
 5558.000000   -17.437   101.145     8.754    31.429   -19.573   -46.254   -16.887    56.344 
 5585.000000   -16.876    98.737     8.684    28.638   -19.483   -48.506   -16.466    55.823 
