! Mini-Circuits  
! S2P DATA File Format
! Type: MMIC Amplifier
! Model: ERA-1     Reference Data:RDF-960
! Note: All S Parameters are in dB deg format
! TEST CONDITIONS: INPUT POWER = -15dBm, Icc = 40mA, Vd = 3.60V @Temperature = -45degC
!
# MHz S DB R 50
!    FREQ       dB(S11)   PHS(S11)  dB(S21)   PHS(S21)  dB(S12)   PHS(S12)  dB(S22)   PHS(S22) 
   50.000000   -28.788    -5.140    12.399   174.619   -16.952    -4.308   -31.610   169.074 
   77.000000   -27.915    -4.553    12.424   172.135   -16.957    -6.053   -31.422   165.343 
  104.000000   -27.713    -6.851    12.410   169.477   -16.962    -8.052   -31.594   163.557 
  131.000000   -28.049    -8.062    12.406   166.891   -16.964    -9.960   -31.570   160.089 
  158.000000   -28.166    -6.978    12.399   164.237   -16.957   -12.151   -31.517   156.870 
  185.000000   -27.872    -9.558    12.397   161.620   -16.958   -14.203   -31.312   152.875 
  212.000000   -27.937   -10.547    12.386   158.875   -16.954   -16.213   -31.067   149.445 
  239.000000   -27.955   -13.148    12.381   156.330   -16.951   -18.203   -31.010   144.755 
  266.000000   -28.366   -15.965    12.383   153.607   -16.946   -20.274   -30.683   140.038 
  293.000000   -28.411   -18.712    12.376   150.937   -16.963   -22.177   -30.116   136.083 
  320.000000   -28.405   -20.350    12.372   148.279   -16.957   -24.165   -29.691   131.902 
  347.000000   -28.439   -24.106    12.341   145.637   -16.956   -26.253   -29.612   128.378 
  374.000000   -28.622   -26.715    12.336   143.060   -16.955   -28.330   -29.447   123.811 
  401.000000   -28.775   -25.769    12.316   140.445   -16.966   -30.328   -29.263   121.353 
  428.000000   -28.848   -27.067    12.315   137.845   -16.961   -32.381   -28.899   118.248 
  455.000000   -29.076   -27.462    12.293   135.159   -16.960   -34.347   -28.494   114.747 
  482.000000   -29.398   -27.685    12.306   132.545   -16.958   -36.418   -28.181   113.222 
  509.000000   -29.877   -32.925    12.293   129.866   -16.958   -38.385   -27.787   110.346 
  536.000000   -29.863   -29.955    12.281   127.349   -16.961   -40.431   -27.527   109.263 
  563.000000   -30.656   -29.677    12.250   124.585   -16.971   -42.556   -27.210   106.747 
  590.000000   -31.208   -31.274    12.235   122.081   -16.958   -44.565   -26.812   103.704 
  617.000000   -31.447   -35.413    12.234   119.459   -16.962   -46.614   -26.626    99.797 
  644.000000   -31.247   -35.629    12.223   116.755   -16.961   -48.658   -26.342    96.667 
  671.000000   -31.504   -36.488    12.226   114.110   -16.965   -50.629   -26.150    94.149 
  698.000000   -31.463   -38.284    12.192   111.502   -16.974   -52.719   -25.798    91.710 
  725.000000   -31.722   -35.618    12.197   108.927   -16.967   -54.790   -25.498    89.925 
  752.000000   -32.151   -36.572    12.181   106.216   -16.983   -56.780   -25.471    87.652 
  779.000000   -32.553   -38.353    12.153   103.764   -16.968   -58.831   -25.225    85.049 
  806.000000   -32.353   -33.848    12.149   101.089   -16.958   -60.793   -24.972    82.064 
  833.000000   -33.098   -31.753    12.124    98.504   -16.986   -62.851   -24.637    79.133 
  860.000000   -34.157   -35.708    12.134    95.858   -16.991   -64.882   -24.259    76.627 
  887.000000   -34.130   -31.493    12.106    93.279   -16.989   -67.031   -23.951    74.778 
  914.000000   -33.556   -25.424    12.070    90.772   -16.976   -69.056   -23.771    73.690 
  941.000000   -34.404   -25.690    12.066    88.079   -16.987   -71.189   -23.564    71.810 
  968.000000   -34.177   -21.970    12.063    85.650   -16.999   -73.109   -23.469    69.526 
  995.000000   -34.511   -22.687    12.052    82.950   -16.986   -75.293   -23.341    66.784 
 1022.000000   -35.153   -22.476    12.024    80.274   -16.989   -77.305   -23.149    63.527 
 1049.000000   -34.437   -22.025    12.021    77.767   -17.012   -79.299   -22.938    61.540 
 1076.000000   -34.011   -16.850    12.012    75.236   -16.989   -81.361   -22.702    59.403 
 1103.000000   -34.431   -13.687    11.998    72.496   -17.008   -83.398   -22.423    57.307 
 1130.000000   -34.060   -17.433    11.983    69.927   -17.005   -85.425   -22.433    55.329 
 1157.000000   -33.316   -13.013    11.963    67.350   -17.011   -87.449   -22.286    52.769 
 1184.000000   -33.680   -10.189    11.946    64.677   -17.023   -89.530   -22.137    50.405 
 1211.000000   -33.799    -8.269    11.935    62.252   -17.026   -91.533   -21.881    47.623 
 1238.000000   -33.585    -7.991    11.911    59.605   -17.025   -93.666   -21.662    44.895 
 1265.000000   -33.082    -5.493    11.910    57.091   -17.020   -95.590   -21.498    43.347 
 1292.000000   -32.648    -3.922    11.881    54.555   -17.028   -97.875   -21.370    41.593 
 1319.000000   -31.653    -5.742    11.871    51.871   -17.034   -99.744   -21.237    39.696 
 1346.000000   -31.504    -2.731    11.844    49.393   -17.038  -101.892   -21.091    37.321 
 1373.000000   -31.285    -1.469    11.840    46.864   -17.049  -103.924   -20.888    34.602 
 1400.000000   -30.963    -3.676    11.819    44.233   -17.051  -105.928   -20.789    32.782 
 1427.000000   -30.351    -1.700    11.812    41.648   -17.050  -107.969   -20.611    31.111 
 1454.000000   -30.396    -0.698    11.791    39.246   -17.067  -109.901   -20.545    28.937 
 1481.000000   -30.395    -5.090    11.788    36.618   -17.071  -112.036   -20.530    26.391 
 1508.000000   -30.089    -6.782    11.752    34.063   -17.076  -114.096   -20.565    24.144 
 1535.000000   -29.978    -7.259    11.763    31.555   -17.076  -116.130   -20.450    21.838 
 1562.000000   -29.653   -10.071    11.746    28.926   -17.092  -118.246   -20.327    19.735 
 1589.000000   -29.137    -8.139    11.717    26.356   -17.095  -120.240   -20.229    16.843 
 1616.000000   -29.180   -11.131    11.696    23.785   -17.094  -122.316   -20.241    15.485 
 1643.000000   -29.039   -12.997    11.691    21.204   -17.101  -124.405   -20.225    13.258 
 1670.000000   -28.644   -14.998    11.672    18.717   -17.110  -126.375   -20.215    11.061 
 1697.000000   -28.379   -12.721    11.666    16.177   -17.130  -128.450   -20.040     7.789 
 1724.000000   -28.561   -13.062    11.654    13.559   -17.118  -130.509   -19.908     5.173 
 1751.000000   -28.155   -18.403    11.609    11.068   -17.132  -132.642   -19.816     3.145 
 1778.000000   -27.450   -18.454    11.603     8.580   -17.130  -134.702   -19.684     1.621 
 1805.000000   -27.530   -21.318    11.598     5.891   -17.148  -136.637   -19.613    -0.552 
 1832.000000   -27.527   -19.355    11.597     3.455   -17.155  -138.896   -19.545    -2.763 
 1859.000000   -27.551   -22.416    11.565     0.974   -17.150  -140.679   -19.552    -6.040 
 1886.000000   -27.084   -25.548    11.531    -1.679   -17.174  -142.818   -19.471    -7.999 
 1913.000000   -26.570   -28.013    11.521    -4.232   -17.166  -144.721   -19.342    -9.349 
 1940.000000   -26.452   -28.782    11.512    -6.742   -17.166  -146.831   -19.300   -11.264 
 1967.000000   -26.307   -30.524    11.491    -9.238   -17.180  -148.833   -19.283   -12.565 
 1994.000000   -26.160   -33.108    11.462   -11.731   -17.169  -150.924   -19.314   -14.558 
 2021.000000   -25.931   -34.573    11.480   -14.458   -17.192  -153.053   -19.333   -16.784 
 2048.000000   -25.603   -34.500    11.447   -17.029   -17.214  -155.049   -19.248   -19.696 
 2075.000000   -25.925   -33.614    11.463   -19.516   -17.196  -157.169   -19.143   -21.928 
 2102.000000   -25.951   -37.761    11.427   -22.036   -17.190  -159.255   -19.113   -24.023 
 2129.000000   -25.800   -42.692    11.389   -24.552   -17.226  -161.047   -19.144   -25.870 
 2156.000000   -25.631   -43.361    11.388   -26.959   -17.240  -163.232   -19.372   -27.891 
 2183.000000   -25.809   -44.943    11.393   -29.678   -17.227  -165.329   -19.423   -30.823 
 2210.000000   -25.675   -46.110    11.367   -32.186   -17.249  -167.480   -19.380   -33.502 
 2237.000000   -25.530   -48.586    11.333   -34.739   -17.253  -169.495   -19.372   -37.040 
 2264.000000   -25.402   -52.068    11.325   -37.207   -17.269  -171.457   -19.244   -39.188 
 2291.000000   -25.081   -55.067    11.291   -39.647   -17.270  -173.581   -19.166   -40.878 
 2318.000000   -25.235   -54.973    11.289   -42.286   -17.285  -175.451   -19.198   -42.591 
 2345.000000   -25.280   -57.748    11.284   -44.704   -17.261  -177.583   -19.286   -44.311 
 2372.000000   -24.861   -60.649    11.280   -47.377   -17.273  -179.779   -19.271   -46.643 
 2399.000000   -24.658   -62.613    11.242   -49.832   -17.296   178.219   -19.143   -49.432 
 2426.000000   -24.641   -62.209    11.227   -52.376   -17.286   176.042   -19.170   -51.437 
 2453.000000   -24.403   -62.124    11.220   -54.830   -17.293   173.961   -19.038   -52.730 
 2480.000000   -24.453   -67.726    11.179   -57.272   -17.351   172.130   -19.056   -56.077 
 2507.000000   -24.132   -69.108    11.161   -59.793   -17.330   170.042   -19.142   -57.490 
 2534.000000   -23.968   -70.377    11.158   -62.450   -17.340   167.941   -19.118   -59.800 
 2561.000000   -24.183   -70.582    11.157   -64.971   -17.354   165.832   -19.202   -62.672 
 2588.000000   -24.223   -73.712    11.099   -67.527   -17.358   163.703   -19.190   -64.900 
 2615.000000   -24.152   -78.388    11.073   -69.921   -17.401   161.843   -19.227   -68.202 
 2642.000000   -23.968   -81.184    11.076   -72.458   -17.383   159.949   -19.389   -69.944 
 2669.000000   -24.141   -79.917    11.075   -74.910   -17.386   157.714   -19.413   -72.201 
 2696.000000   -24.305   -79.251    11.068   -77.566   -17.370   155.649   -19.470   -74.856 
 2723.000000   -24.349   -81.759    11.038   -80.054   -17.373   153.411   -19.435   -77.527 
 2750.000000   -24.190   -83.491    11.022   -82.740   -17.401   151.274   -19.335   -79.278 
 2777.000000   -23.641   -88.762    10.967   -85.173   -17.483   149.094   -19.200   -82.858 
 2804.000000   -23.544   -88.707    10.984   -87.827   -17.463   147.035   -19.231   -84.241 
 2831.000000   -24.105   -94.605    10.920   -90.277   -17.544   145.445   -19.472   -89.907 
 2858.000000   -24.280   -96.852    10.934   -92.606   -17.467   143.338   -19.613   -91.282 
 2885.000000   -23.754   -97.687    10.922   -95.165   -17.499   141.122   -19.438   -93.512 
 2912.000000   -23.835   -98.227    10.904   -97.590   -17.482   139.423   -19.517   -95.232 
 2939.000000   -23.704   -97.708    10.893  -100.284   -17.504   137.307   -19.461   -97.073 
 2966.000000   -23.855   -99.977    10.858  -102.706   -17.509   135.138   -19.548   -99.225 
 2993.000000   -24.141  -104.148    10.864  -105.123   -17.520   133.062   -19.638  -101.370 
 3020.000000   -23.669  -109.016    10.795  -107.688   -17.562   130.942   -19.604  -105.800 
 3047.000000   -24.042  -106.989    10.807  -110.039   -17.530   128.982   -19.777  -107.918 
 3074.000000   -23.584  -107.735    10.781  -112.736   -17.546   126.687   -19.396  -109.887 
 3101.000000   -24.015  -110.498    10.773  -115.053   -17.551   125.043   -19.772  -112.542 
 3128.000000   -23.923  -111.663    10.764  -117.682   -17.533   122.853   -19.785  -113.322 
 3155.000000   -23.515  -115.198    10.749  -120.324   -17.573   120.442   -19.677  -116.868 
 3182.000000   -23.747  -117.691    10.708  -122.784   -17.625   118.428   -19.828  -120.853 
 3209.000000   -23.764  -121.764    10.697  -125.211   -17.657   116.441   -19.845  -125.643 
 3236.000000   -23.893  -122.367    10.689  -127.717   -17.610   114.584   -19.933  -127.057 
 3263.000000   -23.189  -123.660    10.655  -130.437   -17.630   112.158   -19.518  -128.220 
 3290.000000   -23.117  -127.978    10.596  -132.415   -17.699   110.429   -19.586  -132.525 
 3317.000000   -23.460  -125.437    10.627  -135.025   -17.661   108.537   -19.892  -133.128 
 3344.000000   -23.445  -127.846    10.603  -137.757   -17.653   106.286   -19.898  -134.967 
 3371.000000   -23.179  -128.692    10.583  -140.114   -17.654   104.344   -19.856  -138.434 
 3398.000000   -22.545  -127.284    10.599  -142.765   -17.650   101.788   -19.501  -140.375 
 3425.000000   -23.097  -132.135    10.535  -144.911   -17.723   100.165   -19.477  -145.663 
 3452.000000   -23.242  -132.619    10.550  -147.461   -17.683    98.294   -19.645  -146.627 
 3479.000000   -22.941  -134.119    10.547  -150.197   -17.701    95.887   -19.525  -147.074 
 3506.000000   -22.534  -134.740    10.508  -152.943   -17.694    93.411   -19.344  -148.091 
 3533.000000   -22.692  -145.037    10.397  -154.925   -17.883    91.828   -19.376  -157.661 
 3560.000000   -23.294  -139.111    10.481  -157.441   -17.761    89.888   -19.777  -157.900 
 3587.000000   -23.033  -144.910    10.410  -160.113   -17.819    87.602   -19.444  -161.202 
 3614.000000   -23.018  -146.984    10.415  -162.479   -17.800    85.733   -19.548  -162.068 
 3641.000000   -22.908  -146.041    10.431  -164.833   -17.792    83.863   -19.629  -163.853 
 3668.000000   -22.868  -148.543    10.392  -167.407   -17.816    81.702   -19.605  -167.581 
 3695.000000   -23.263  -150.310    10.374  -169.945   -17.816    79.681   -19.653  -169.967 
 3722.000000   -22.865  -150.704    10.411  -172.598   -17.784    77.559   -19.661  -171.658 
 3749.000000   -22.050  -151.892    10.339  -175.444   -17.800    74.863   -19.113  -173.316 
 3776.000000   -22.027  -155.229    10.308  -177.664   -17.872    72.793   -18.973  -177.282 
 3803.000000   -22.623  -161.526    10.236  -179.613   -18.003    71.378   -19.156   176.500 
 3830.000000   -22.731  -160.590    10.277   177.641   -17.906    69.202   -19.379   176.873 
 3857.000000   -21.849  -165.055    10.210   174.784   -17.954    66.406   -18.893   174.057 
 3884.000000   -22.404  -166.762    10.218   172.966   -17.995    65.248   -19.255   168.634 
 3911.000000   -22.248  -165.838    10.207   170.334   -17.993    63.058   -18.996   166.903 
 3938.000000   -22.347  -167.352    10.185   167.965   -17.994    61.045   -18.801   164.946 
 3965.000000   -22.165  -168.294    10.186   165.140   -17.933    59.001   -18.983   164.994 
 3992.000000   -21.319  -172.413    10.127   162.425   -18.006    56.382   -18.596   162.806 
 4019.000000   -21.300  -174.177    10.112   160.137   -18.048    54.453   -18.540   159.274 
 4046.000000   -21.781  -173.980    10.131   157.991   -17.999    52.906   -18.829   155.798 
 4073.000000   -21.290  -178.275    10.042   155.303   -18.110    50.178   -18.193   152.187 
 4100.000000   -21.154  -177.395    10.074   152.696   -18.040    48.359   -18.147   152.301 
 4127.000000   -20.457   177.187     9.971   150.163   -18.137    45.628   -17.565   150.322 
 4154.000000   -20.871   174.592     9.949   148.113   -18.228    44.340   -17.797   145.513 
 4181.000000   -21.606   172.310     9.974   145.981   -18.253    42.599   -18.114   141.981 
 4208.000000   -21.712   174.016    10.026   143.572   -18.153    40.967   -18.444   141.262 
 4235.000000   -21.082   173.122     9.984   140.579   -18.158    38.570   -18.065   139.731 
 4262.000000   -20.836   172.952     9.964   138.049   -18.141    36.176   -17.850   138.357 
 4289.000000   -20.625   168.630     9.913   135.557   -18.163    33.881   -17.703   136.580 
 4316.000000   -20.600   165.254     9.894   133.039   -18.204    31.774   -17.598   133.940 
 4343.000000   -20.993   161.777     9.897   131.045   -18.276    30.386   -17.953   129.789 
 4370.000000   -20.221   163.385     9.890   128.245   -18.215    27.919   -17.739   129.274 
 4397.000000   -20.065   160.910     9.796   125.754   -18.287    25.505   -17.343   124.616 
 4424.000000   -20.673   159.043     9.805   123.631   -18.344    23.821   -17.409   121.344 
 4451.000000   -20.871   153.677     9.802   121.314   -18.359    21.953   -17.397   119.480 
 4478.000000   -19.855   151.459     9.767   118.654   -18.365    19.335   -17.167   118.309 
 4505.000000   -20.271   154.418     9.824   116.127   -18.319    18.254   -17.591   117.097 
 4532.000000   -20.060   153.627     9.799   113.526   -18.309    15.854   -17.379   114.746 
 4559.000000   -19.171   145.787     9.613   110.690   -18.410    12.307   -16.352   112.009 
 4586.000000   -20.066   143.461     9.694   109.148   -18.473    11.841   -16.914   108.177 
 4613.000000   -19.989   144.773     9.746   106.711   -18.432    10.243   -16.975   108.698 
 4640.000000   -19.390   145.079     9.738   103.818   -18.395     7.811   -16.838   108.371 
 4667.000000   -19.470   142.658     9.707   101.180   -18.384     5.624   -16.933   107.925 
 4694.000000   -19.183   135.780     9.582    98.792   -18.477     2.862   -16.569   103.945 
 4721.000000   -19.430   131.712     9.598    96.994   -18.581     1.332   -16.798    99.013 
 4748.000000   -19.182   133.700     9.624    94.415   -18.553    -0.294   -16.691    97.773 
 4775.000000   -18.618   133.863     9.578    91.561   -18.488    -2.872   -16.311    97.847 
 4802.000000   -18.893   123.833     9.469    89.525   -18.641    -5.282   -16.106    95.225 
 4829.000000   -19.054   125.948     9.592    87.015   -18.561    -6.376   -16.635    95.023 
 4856.000000   -18.214   126.731     9.556    83.939   -18.470    -8.857   -16.459    95.908 
 4883.000000   -18.207   120.508     9.437    82.136   -18.658   -11.511   -16.143    89.283 
 4910.000000   -18.390   118.727     9.413    79.627   -18.709   -13.368   -16.030    86.511 
 4937.000000   -18.282   119.783     9.451    76.965   -18.607   -15.106   -16.039    86.196 
 4964.000000   -17.719   112.420     9.352    74.640   -18.705   -17.993   -15.676    84.007 
 4991.000000   -18.143   113.020     9.426    72.756   -18.772   -18.943   -16.166    81.588 
 5018.000000   -18.112   116.857     9.496    69.990   -18.680   -20.537   -16.380    81.002 
 5045.000000   -17.976   113.475     9.407    67.354   -18.701   -23.081   -16.219    78.287 
 5072.000000   -17.597   111.800     9.406    64.330   -18.622   -25.226   -16.064    78.195 
 5099.000000   -16.959   105.016     9.251    62.010   -18.715   -28.431   -15.354    75.129 
 5126.000000   -17.149   105.185     9.266    59.910   -18.743   -30.045   -15.357    72.967 
 5153.000000   -17.410    97.220     9.127    58.469   -19.006   -32.614   -15.282    67.374 
 5180.000000   -17.630    99.057     9.284    55.579   -18.871   -33.547   -15.730    68.442 
 5207.000000   -17.826    99.105     9.336    53.191   -18.883   -34.787   -16.015    66.699 
 5234.000000   -17.349    96.940     9.274    50.686   -18.898   -37.330   -15.703    64.252 
 5261.000000   -16.753    97.686     9.256    47.479   -18.766   -39.642   -15.429    65.149 
 5288.000000   -16.844    93.313     9.191    45.222   -18.829   -41.959   -15.257    62.958 
 5315.000000   -16.864    82.619     8.987    43.831   -19.080   -45.362   -14.702    58.051 
 5342.000000   -17.022    87.584     9.212    40.998   -18.986   -45.578   -15.476    58.564 
 5369.000000   -16.080    85.709     9.061    37.802   -18.875   -48.844   -14.909    58.210 
 5396.000000   -16.817    82.586     9.083    36.268   -19.058   -50.270   -15.205    53.485 
 5423.000000   -17.327    82.556     9.216    34.338   -19.145   -50.963   -15.660    50.463 
 5450.000000   -16.345    82.203     9.138    30.810   -18.959   -53.620   -15.229    53.072 
 5477.000000   -15.863    78.038     9.015    28.330   -18.973   -56.565   -14.834    51.152 
 5504.000000   -16.061    77.203     9.003    26.039   -19.009   -58.353   -14.881    48.905 
 5531.000000   -16.157    73.384     8.988    23.800   -19.061   -60.694   -15.006    45.700 
 5558.000000   -16.406    70.779     9.033    21.744   -19.175   -62.122   -15.284    42.972 
 5585.000000   -15.883    66.664     8.904    19.297   -19.167   -65.140   -14.721    41.225 
