! Mini-Circuits  
! S2P DATA File Format
! Type: MMIC Amplifier
! Model: ERA-1     Reference Data:RDF-960
! Note: All S Parameters are in dB deg format
! TEST CONDITIONS: INPUT POWER = -15dBm, Icc = 40mA, Vd = 3.43V @Temperature = +25degC
!
# MHz S DB R 50
!    FREQ       dB(S11)   PHS(S11)  dB(S21)   PHS(S21)  dB(S12)   PHS(S12)  dB(S22)   PHS(S22) 
   50.000000   -28.100    -5.303    12.246   174.624   -16.869    -4.046   -33.061   168.067 
   77.000000   -27.331    -2.250    12.280   172.143   -16.880    -6.048   -32.816   163.996 
  104.000000   -27.569    -5.643    12.250   169.458   -16.884    -7.944   -32.567   161.384 
  131.000000   -28.234    -6.389    12.239   166.928   -16.882    -9.783   -32.160   157.140 
  158.000000   -28.297    -7.940    12.236   164.322   -16.892   -12.032   -31.884   152.493 
  185.000000   -28.071   -11.080    12.241   161.675   -16.886   -13.980   -31.692   148.211 
  212.000000   -28.064   -12.725    12.228   159.037   -16.876   -15.951   -31.468   145.368 
  239.000000   -27.893   -15.912    12.235   156.455   -16.881   -17.980   -31.461   141.299 
  266.000000   -28.219   -17.465    12.213   153.801   -16.890   -19.926   -31.238   137.838 
  293.000000   -28.281   -19.777    12.209   151.133   -16.895   -21.848   -30.704   135.292 
  320.000000   -28.136   -20.517    12.195   148.551   -16.893   -23.672   -30.327   132.474 
  347.000000   -28.160   -24.312    12.188   146.027   -16.895   -25.844   -30.312   129.847 
  374.000000   -28.443   -25.744    12.165   143.371   -16.902   -27.869   -30.135   125.956 
  401.000000   -28.709   -24.383    12.147   140.836   -16.889   -29.780   -29.867   123.939 
  428.000000   -28.885   -26.709    12.145   138.250   -16.899   -31.772   -29.484   120.845 
  455.000000   -29.146   -28.362    12.121   135.615   -16.899   -33.723   -29.101   116.978 
  482.000000   -29.364   -28.634    12.140   133.138   -16.901   -35.735   -28.837   114.659 
  509.000000   -29.692   -35.378    12.109   130.384   -16.906   -37.699   -28.479   111.211 
  536.000000   -29.597   -33.323    12.109   127.838   -16.909   -39.697   -28.284   109.658 
  563.000000   -30.324   -33.942    12.071   125.233   -16.907   -41.749   -28.000   106.839 
  590.000000   -30.664   -36.948    12.068   122.600   -16.908   -43.744   -27.632   103.814 
  617.000000   -30.602   -39.508    12.054   120.017   -16.907   -45.715   -27.502    99.789 
  644.000000   -30.572   -40.425    12.036   117.386   -16.913   -47.770   -27.243    97.020 
  671.000000   -30.837   -40.916    12.047   114.846   -16.920   -49.689   -27.012    94.724 
  698.000000   -30.803   -42.701    12.013   112.248   -16.929   -51.749   -26.608    92.422 
  725.000000   -31.365   -40.450    12.006   109.596   -16.920   -53.747   -26.194    91.007 
  752.000000   -32.019   -41.732    11.983   107.076   -16.930   -55.776   -26.169    88.746 
  779.000000   -32.387   -44.092    11.967   104.617   -16.911   -57.762   -25.960    85.965 
  806.000000   -32.463   -40.433    11.954   101.912   -16.911   -59.712   -25.692    82.916 
  833.000000   -33.159   -41.328    11.933    99.428   -16.944   -61.678   -25.358    79.749 
  860.000000   -33.918   -46.860    11.956    96.710   -16.943   -63.593   -24.973    77.253 
  887.000000   -34.069   -43.440    11.930    94.295   -16.942   -65.643   -24.680    75.256 
  914.000000   -33.776   -36.652    11.891    91.741   -16.945   -67.820   -24.489    74.329 
  941.000000   -34.726   -38.901    11.880    89.143   -16.965   -69.739   -24.269    72.609 
  968.000000   -34.579   -35.025    11.879    86.735   -16.962   -71.678   -24.183    70.335 
  995.000000   -35.022   -37.112    11.866    84.023   -16.951   -73.708   -24.054    67.648 
 1022.000000   -35.656   -39.603    11.835    81.487   -16.960   -75.661   -23.885    64.407 
 1049.000000   -35.133   -36.554    11.843    78.974   -16.967   -77.688   -23.666    62.409 
 1076.000000   -35.022   -30.426    11.823    76.422   -16.959   -79.674   -23.433    60.311 
 1103.000000   -35.758   -27.994    11.808    73.787   -16.967   -81.686   -23.142    58.333 
 1130.000000   -35.226   -30.721    11.793    71.227   -16.983   -83.728   -23.152    56.478 
 1157.000000   -34.710   -23.933    11.770    68.690   -16.982   -85.760   -23.007    54.083 
 1184.000000   -35.316   -21.624    11.766    66.052   -16.980   -87.670   -22.839    51.844 
 1211.000000   -35.857   -19.164    11.738    63.689   -16.993   -89.739   -22.588    49.073 
 1238.000000   -35.798   -19.414    11.719    61.107   -17.005   -91.792   -22.370    46.234 
 1265.000000   -35.508   -15.381    11.726    58.633   -17.004   -93.805   -22.209    44.683 
 1292.000000   -35.197   -12.992    11.685    56.047   -17.002   -95.742   -22.095    42.894 
 1319.000000   -34.008   -13.466    11.677    53.473   -17.013   -97.765   -21.963    41.068 
 1346.000000   -34.110   -10.671    11.643    50.966   -17.006   -99.752   -21.838    38.766 
 1373.000000   -33.885    -9.474    11.649    48.417   -17.033  -101.827   -21.644    36.075 
 1400.000000   -33.476   -12.027    11.630    45.951   -17.020  -103.744   -21.586    34.399 
 1427.000000   -32.685    -8.463    11.610    43.300   -17.024  -105.742   -21.419    32.905 
 1454.000000   -32.817    -6.031    11.593    40.936   -17.037  -107.721   -21.341    30.813 
 1481.000000   -32.700   -10.716    11.596    38.408   -17.046  -109.774   -21.310    28.378 
 1508.000000   -32.101   -11.575    11.563    35.838   -17.060  -111.749   -21.368    26.018 
 1535.000000   -32.101   -11.110    11.562    33.374   -17.073  -113.728   -21.291    24.033 
 1562.000000   -31.609   -13.397    11.535    30.809   -17.051  -115.871   -21.136    21.898 
 1589.000000   -31.231    -9.530    11.526    28.300   -17.078  -117.785   -21.009    18.967 
 1616.000000   -31.332   -12.574    11.490    25.763   -17.079  -119.744   -21.019    17.645 
 1643.000000   -31.295   -14.657    11.497    23.211   -17.079  -121.792   -21.028    15.531 
 1670.000000   -30.797   -16.893    11.469    20.645   -17.093  -123.818   -21.015    13.373 
 1697.000000   -30.418   -13.713    11.470    18.195   -17.102  -125.836   -20.835    10.103 
 1724.000000   -30.679   -14.538    11.458    15.664   -17.096  -127.794   -20.708     7.574 
 1751.000000   -30.040   -20.674    11.409    13.189   -17.116  -129.863   -20.599     5.781 
 1778.000000   -29.165   -19.118    11.396    10.687   -17.112  -131.900   -20.487     4.459 
 1805.000000   -29.109   -22.023    11.399     8.039   -17.144  -133.742   -20.391     2.541 
 1832.000000   -29.245   -19.029    11.394     5.668   -17.134  -135.888   -20.358     0.299 
 1859.000000   -29.250   -21.197    11.377     3.275   -17.167  -137.726   -20.339    -3.047 
 1886.000000   -28.785   -23.232    11.335     0.662   -17.165  -139.818   -20.225    -5.037 
 1913.000000   -28.243   -25.858    11.315    -1.918   -17.182  -141.831   -20.103    -6.422 
 1940.000000   -28.290   -25.637    11.301    -4.385   -17.155  -143.671   -20.063    -8.408 
 1967.000000   -28.193   -27.575    11.279    -6.843   -17.190  -145.717   -20.065    -9.681 
 1994.000000   -28.118   -30.993    11.261    -9.243   -17.174  -147.729   -20.148   -11.706 
 2021.000000   -27.932   -32.673    11.261   -11.992   -17.193  -149.782   -20.181   -13.891 
 2048.000000   -27.491   -32.729    11.249   -14.502   -17.218  -151.758   -20.107   -16.874 
 2075.000000   -27.876   -31.846    11.244   -17.002   -17.201  -153.843   -19.988   -18.813 
 2102.000000   -27.804   -36.344    11.210   -19.386   -17.215  -155.883   -19.937   -20.815 
 2129.000000   -27.511   -41.753    11.189   -21.935   -17.208  -157.742   -19.984   -22.483 
 2156.000000   -27.242   -41.941    11.179   -24.280   -17.246  -159.739   -20.192   -24.244 
 2183.000000   -27.402   -42.101    11.183   -26.915   -17.231  -161.902   -20.230   -27.034 
 2210.000000   -27.219   -42.494    11.153   -29.449   -17.244  -163.935   -20.154   -29.716 
 2237.000000   -27.027   -44.404    11.125   -32.057   -17.259  -165.948   -20.141   -33.410 
 2264.000000   -26.953   -47.136    11.114   -34.355   -17.285  -167.885   -19.983   -35.600 
 2291.000000   -26.632   -50.029    11.068   -36.806   -17.276  -169.820   -19.905   -37.367 
 2318.000000   -26.838   -49.325    11.058   -39.397   -17.292  -171.875   -19.945   -39.201 
 2345.000000   -27.059   -51.568    11.057   -41.795   -17.283  -173.876   -20.048   -40.930 
 2372.000000   -26.686   -54.876    11.056   -44.409   -17.297  -175.929   -20.067   -43.353 
 2399.000000   -26.477   -56.998    11.025   -46.780   -17.303  -177.975   -19.956   -46.237 
 2426.000000   -26.483   -55.834    11.021   -49.340   -17.301   179.938   -19.999   -48.303 
 2453.000000   -26.354   -55.439    10.990   -51.844   -17.321   177.959   -19.898   -49.665 
 2480.000000   -26.347   -61.937    10.964   -54.214   -17.371   176.101   -19.905   -52.983 
 2507.000000   -26.014   -63.449    10.943   -56.746   -17.358   174.202   -19.995   -54.436 
 2534.000000   -25.788   -64.843    10.933   -59.268   -17.351   171.984   -20.018   -56.530 
 2561.000000   -26.049   -64.882    10.924   -61.760   -17.362   169.918   -20.045   -59.561 
 2588.000000   -26.090   -67.967    10.885   -64.291   -17.376   167.897   -20.035   -61.502 
 2615.000000   -25.932   -73.008    10.864   -66.708   -17.428   165.981   -20.049   -64.730 
 2642.000000   -25.747   -76.165    10.849   -69.150   -17.406   164.158   -20.235   -66.377 
 2669.000000   -25.766   -74.547    10.853   -71.599   -17.418   162.026   -20.232   -68.419 
 2696.000000   -25.885   -73.020    10.830   -74.204   -17.412   160.033   -20.272   -71.144 
 2723.000000   -25.880   -74.436    10.821   -76.651   -17.425   157.866   -20.226   -73.811 
 2750.000000   -25.706   -75.988    10.793   -79.387   -17.423   155.708   -20.097   -75.465 
 2777.000000   -24.947   -80.435    10.731   -81.688   -17.509   153.614   -19.881   -78.906 
 2804.000000   -24.978   -80.046    10.768   -84.322   -17.479   151.602   -19.988   -80.408 
 2831.000000   -25.469   -86.166    10.688   -86.738   -17.581   149.911   -20.118   -86.786 
 2858.000000   -25.994   -87.524    10.710   -88.939   -17.511   147.995   -20.370   -87.807 
 2885.000000   -25.377   -88.163    10.689   -91.469   -17.517   145.925   -20.159   -90.124 
 2912.000000   -25.530   -89.510    10.663   -93.837   -17.521   144.084   -20.293   -92.082 
 2939.000000   -25.335   -88.201    10.669   -96.493   -17.529   141.955   -20.214   -93.740 
 2966.000000   -25.558   -90.445    10.643   -98.977   -17.547   139.890   -20.327   -95.735 
 2993.000000   -25.948   -95.611    10.627  -101.347   -17.539   137.972   -20.418   -97.807 
 3020.000000   -25.495   -99.961    10.594  -103.769   -17.587   135.816   -20.391  -101.479 
 3047.000000   -25.662   -98.233    10.592  -106.166   -17.572   133.979   -20.486  -104.068 
 3074.000000   -25.110   -98.398    10.561  -108.823   -17.597   131.749   -20.109  -105.838 
 3101.000000   -25.533  -100.480    10.553  -111.076   -17.588   130.176   -20.470  -108.493 
 3128.000000   -25.393  -101.082    10.541  -113.647   -17.576   127.974   -20.450  -109.082 
 3155.000000   -24.929  -104.246    10.507  -116.355   -17.620   125.648   -20.336  -112.424 
 3182.000000   -25.182  -106.202    10.489  -118.691   -17.662   123.661   -20.492  -116.771 
 3209.000000   -25.325  -109.102    10.469  -121.122   -17.683   121.756   -20.522  -121.248 
 3236.000000   -25.458  -110.437    10.456  -123.561   -17.663   120.031   -20.614  -123.484 
 3263.000000   -24.748  -111.144    10.449  -126.168   -17.676   117.639   -20.228  -124.209 
 3290.000000   -24.671  -116.555    10.372  -128.208   -17.750   115.972   -20.231  -129.061 
 3317.000000   -25.129  -113.085    10.398  -130.766   -17.706   114.128   -20.627  -129.774 
 3344.000000   -25.192  -115.150    10.377  -133.374   -17.708   111.929   -20.647  -131.305 
 3371.000000   -24.895  -116.610    10.366  -135.734   -17.711   109.914   -20.611  -134.695 
 3398.000000   -24.126  -115.349    10.357  -138.287   -17.708   107.565   -20.252  -136.604 
 3425.000000   -24.735  -121.142    10.312  -140.512   -17.804   105.820   -20.170  -142.054 
 3452.000000   -24.890  -120.842    10.305  -142.962   -17.768   104.137   -20.354  -142.675 
 3479.000000   -24.412  -122.248    10.318  -145.672   -17.751   101.644   -20.234  -142.268 
 3506.000000   -23.878  -124.063    10.295  -148.376   -17.760    99.234   -20.037  -143.354 
 3533.000000   -23.776  -135.532    10.157  -150.447   -17.948    97.594   -19.920  -152.947 
 3560.000000   -24.526  -127.465    10.252  -152.837   -17.839    95.990   -20.466  -152.980 
 3587.000000   -24.135  -133.081    10.169  -155.462   -17.869    93.601   -20.042  -156.197 
 3614.000000   -24.136  -134.752    10.167  -157.831   -17.867    91.838   -20.187  -156.992 
 3641.000000   -23.907  -133.703    10.186  -160.173   -17.858    89.889   -20.213  -158.757 
 3668.000000   -23.894  -135.652    10.160  -162.585   -17.888    87.844   -20.207  -162.598 
 3695.000000   -24.353  -136.646    10.153  -165.074   -17.891    85.826   -20.281  -165.048 
 3722.000000   -24.053  -136.798    10.174  -167.723   -17.873    83.663   -20.314  -166.799 
 3749.000000   -23.193  -137.943    10.125  -170.586   -17.842    81.087   -19.800  -167.888 
 3776.000000   -23.197  -143.011    10.085  -172.634   -17.951    79.319   -19.634  -172.646 
 3803.000000   -23.528  -147.518    10.006  -174.791   -18.042    77.498   -19.694  -177.293 
 3830.000000   -23.848  -146.816    10.043  -177.280   -17.974    75.580   -20.047  -177.544 
 3857.000000   -22.822  -152.729     9.983   179.838   -18.021    72.883   -19.543   179.465 
 3884.000000   -23.395  -153.865     9.980   178.000   -18.080    71.713   -19.974   173.840 
 3911.000000   -23.070  -152.313     9.970   175.506   -18.078    69.578   -19.666   172.359 
 3938.000000   -23.116  -152.729     9.964   173.019   -18.070    67.655   -19.448   170.701 
 3965.000000   -23.068  -153.612     9.962   170.432   -18.029    65.793   -19.624   170.258 
 3992.000000   -22.311  -156.630     9.935   167.659   -18.034    63.218   -19.303   169.325 
 4019.000000   -22.302  -160.281     9.882   165.486   -18.117    61.213   -19.213   164.702 
 4046.000000   -22.837  -159.222     9.891   163.290   -18.102    59.806   -19.587   161.132 
 4073.000000   -22.016  -162.129     9.826   160.445   -18.141    56.894   -18.854   159.284 
 4100.000000   -22.076  -163.960     9.833   158.056   -18.132    55.178   -18.764   157.993 
 4127.000000   -21.552  -169.382     9.757   155.694   -18.216    52.880   -18.369   156.316 
 4154.000000   -21.782  -171.388     9.722   153.653   -18.300    51.336   -18.547   151.602 
 4181.000000   -22.520  -173.005     9.742   151.532   -18.331    49.677   -18.841   148.039 
 4208.000000   -22.616  -171.015     9.791   149.128   -18.256    48.187   -19.230   146.961 
 4235.000000   -21.858  -172.859     9.744   146.176   -18.256    45.743   -18.757   145.479 
 4262.000000   -21.520  -172.121     9.747   143.673   -18.232    43.550   -18.552   144.654 
 4289.000000   -21.345  -176.316     9.697   141.259   -18.271    41.176   -18.402   142.272 
 4316.000000   -21.419  -179.056     9.667   138.657   -18.310    39.312   -18.361   140.441 
 4343.000000   -21.870   177.317     9.661   136.829   -18.387    37.773   -18.692   135.932 
 4370.000000   -21.028   178.286     9.665   134.043   -18.303    35.626   -18.543   135.475 
 4397.000000   -20.868   176.429     9.594   131.669   -18.395    33.173   -18.176   130.874 
 4424.000000   -21.381   174.722     9.591   129.505   -18.435    31.585   -18.172   127.788 
 4451.000000   -21.602   169.343     9.570   127.146   -18.486    29.622   -18.127   126.083 
 4478.000000   -20.509   168.778     9.568   124.305   -18.403    27.228   -17.865   126.955 
 4505.000000   -20.908   169.410     9.591   122.171   -18.445    25.994   -18.387   124.081 
 4532.000000   -20.444   168.746     9.567   119.569   -18.412    23.660   -18.101   122.218 
 4559.000000   -19.701   163.426     9.441   116.562   -18.444    20.519   -17.320   120.334 
 4586.000000   -20.499   159.467     9.470   115.114   -18.572    19.615   -17.664   115.214 
 4613.000000   -20.411   160.793     9.507   112.782   -18.553    18.091   -17.696   115.487 
 4640.000000   -19.723   161.736     9.504   109.891   -18.495    15.661   -17.511   115.855 
 4667.000000   -19.908   159.275     9.467   107.415   -18.497    13.621   -17.610   114.982 
 4694.000000   -19.644   153.085     9.360   104.886   -18.570    10.807   -17.261   111.750 
 4721.000000   -19.799   148.942     9.360   103.015   -18.671     9.148   -17.419   106.446 
 4748.000000   -19.743   149.194     9.370   100.854   -18.709     7.752   -17.358   103.922 
 4775.000000   -19.143   151.872     9.372    97.893   -18.601     5.503   -17.156   105.048 
 4802.000000   -19.409   142.226     9.246    95.803   -18.735     2.869   -16.855   102.033 
 4829.000000   -19.723   144.610     9.372    93.446   -18.682     2.024   -17.403   101.850 
 4856.000000   -18.751   144.767     9.328    90.280   -18.574    -0.389   -17.219   103.433 
 4883.000000   -18.631   138.762     9.218    88.356   -18.745    -3.305   -16.819    97.172 
 4910.000000   -18.724   137.986     9.192    85.897   -18.760    -5.377   -16.653    94.689 
 4937.000000   -19.126   137.629     9.220    83.709   -18.768    -6.581   -16.820    92.430 
 4964.000000   -18.513   130.296     9.147    81.284   -18.825    -9.213   -16.501    91.049 
 4991.000000   -18.870   130.363     9.196    79.369   -18.910   -10.299   -16.945    88.567 
 5018.000000   -18.775   134.560     9.266    76.712   -18.816   -11.780   -17.182    88.507 
 5045.000000   -18.489   131.436     9.171    73.959   -18.823   -14.461   -16.955    86.110 
 5072.000000   -18.338   129.672     9.184    71.213   -18.773   -16.234   -16.907    85.807 
 5099.000000   -17.315   122.032     8.991    68.374   -18.758   -19.969   -15.927    84.049 
 5126.000000   -17.803   122.859     9.062    66.693   -18.855   -20.982   -16.228    81.304 
 5153.000000   -17.917   117.296     8.960    64.846   -19.029   -23.430   -16.147    77.003 
 5180.000000   -18.462   117.991     9.095    62.571   -19.045   -24.202   -16.775    76.318 
 5207.000000   -18.255   114.910     9.046    60.066   -19.058   -26.481   -16.596    74.327 
 5234.000000   -17.874   115.082     9.040    57.604   -19.044   -28.360   -16.528    72.295 
 5261.000000   -17.457   116.466     9.042    54.749   -18.949   -30.259   -16.339    72.410 
 5288.000000   -17.415   111.379     8.951    52.326   -18.997   -32.865   -16.007    70.572 
 5315.000000   -17.477   101.474     8.761    50.638   -19.170   -36.290   -15.397    66.229 
 5342.000000   -17.778   106.494     8.989    48.147   -19.158   -36.247   -16.313    66.138 
 5369.000000   -16.879   104.865     8.877    45.038   -19.011   -39.088   -15.917    66.604 
 5396.000000   -17.690   100.260     8.847    43.731   -19.286   -41.047   -16.083    59.768 
 5423.000000   -18.145    99.363     8.931    41.745   -19.367   -42.074   -16.384    57.013 
 5450.000000   -17.168   101.634     8.946    38.008   -19.116   -43.701   -16.212    61.426 
 5477.000000   -16.518    96.958     8.814    35.375   -19.088   -46.684   -15.755    60.186 
 5504.000000   -16.772    93.989     8.759    33.410   -19.199   -49.079   -15.680    56.867 
 5531.000000   -16.878    92.184     8.776    31.134   -19.214   -51.057   -15.867    54.424 
 5558.000000   -17.093    88.939     8.808    29.178   -19.343   -52.494   -16.185    51.467 
 5585.000000   -16.617    85.732     8.725    26.654   -19.316   -55.169   -15.762    49.793 
