! Mini-Circuits  
! S2P DATA File Format
! Type: MMIC Amplifier
! Model: ERA-1     Reference Data:RDF-960
! Note: All S Parameters are in dB deg format
! TEST CONDITIONS: INPUT POWER = -15dBm, Icc = 40mA, Vd = 3.30V @Temperature = +85degC
!
# MHz S DB R 50
!    FREQ       dB(S11)   PHS(S11)  dB(S21)   PHS(S21)  dB(S12)   PHS(S12)  dB(S22)   PHS(S22) 
   50.000000   -27.602    -1.518    12.129   174.648   -16.804    -4.266   -35.429   167.846 
   77.000000   -26.730    -2.584    12.167   172.207   -16.817    -5.967   -34.463   163.050 
  104.000000   -27.210    -3.761    12.129   169.611   -16.822    -7.983   -33.896   159.334 
  131.000000   -27.887    -6.233    12.108   166.960   -16.820    -9.847   -33.173   154.569 
  158.000000   -28.199    -8.226    12.105   164.440   -16.826   -11.975   -32.765   149.081 
  185.000000   -28.092   -11.884    12.108   161.788   -16.831   -13.894   -32.178   144.121 
  212.000000   -28.175   -15.052    12.109   159.088   -16.827   -15.877   -31.872   140.725 
  239.000000   -27.963   -18.779    12.109   156.461   -16.821   -17.838   -31.856   135.986 
  266.000000   -28.047   -22.002    12.088   153.811   -16.832   -19.754   -31.663   132.732 
  293.000000   -27.988   -23.795    12.077   151.216   -16.835   -21.673   -31.241   131.006 
  320.000000   -27.788   -23.407    12.080   148.709   -16.832   -23.526   -31.015   128.849 
  347.000000   -27.749   -26.498    12.054   145.991   -16.843   -25.649   -31.106   127.399 
  374.000000   -27.912   -27.503    12.030   143.462   -16.853   -27.615   -30.977   124.690 
  401.000000   -28.135   -26.016    12.012   140.886   -16.850   -29.565   -30.803   123.723 
  428.000000   -28.405   -27.924    12.012   138.258   -16.846   -31.501   -30.427   121.043 
  455.000000   -28.685   -29.407    11.992   135.672   -16.844   -33.530   -30.017   117.468 
  482.000000   -28.935   -30.044    11.997   133.084   -16.841   -35.440   -29.745   115.566 
  509.000000   -29.273   -36.999    11.971   130.443   -16.851   -37.418   -29.407   111.918 
  536.000000   -29.162   -35.750    11.968   127.926   -16.855   -39.422   -29.255   110.336 
  563.000000   -29.693   -37.611    11.940   125.239   -16.854   -41.438   -29.045   107.316 
  590.000000   -30.008   -40.564    11.924   122.722   -16.856   -43.391   -28.678   103.726 
  617.000000   -29.903   -44.417    11.913   120.117   -16.866   -45.392   -28.593    99.147 
  644.000000   -29.623   -45.668    11.899   117.535   -16.859   -47.326   -28.387    95.716 
  671.000000   -29.875   -47.254    11.901   114.891   -16.872   -49.270   -28.220    93.219 
  698.000000   -29.797   -48.853    11.867   112.370   -16.867   -51.277   -27.830    90.924 
  725.000000   -30.257   -48.570    11.875   109.766   -16.875   -53.329   -27.420    89.446 
  752.000000   -30.694   -49.766    11.851   107.225   -16.877   -55.137   -27.297    87.669 
  779.000000   -30.918   -52.457    11.832   104.749   -16.874   -57.264   -27.110    84.882 
  806.000000   -30.986   -49.877    11.836   102.103   -16.862   -59.215   -26.847    81.676 
  833.000000   -31.601   -51.041    11.801    99.530   -16.901   -61.129   -26.468    78.576 
  860.000000   -32.234   -56.503    11.811    96.997   -16.891   -63.115   -26.052    76.092 
  887.000000   -32.556   -54.901    11.780    94.510   -16.890   -65.121   -25.720    74.387 
  914.000000   -32.517   -50.121    11.747    91.970   -16.903   -67.012   -25.543    73.564 
  941.000000   -33.209   -53.820    11.735    89.408   -16.898   -69.013   -25.317    71.946 
  968.000000   -33.287   -51.748    11.730    86.975   -16.910   -71.044   -25.236    69.695 
  995.000000   -33.780   -54.781    11.728    84.246   -16.893   -73.080   -25.121    67.000 
 1022.000000   -34.173   -57.933    11.679    81.669   -16.920   -75.049   -24.917    63.814 
 1049.000000   -33.799   -55.147    11.696    79.157   -16.924   -77.035   -24.713    62.038 
 1076.000000   -34.036   -50.031    11.658    76.651   -16.925   -79.019   -24.478    60.173 
 1103.000000   -34.888   -50.555    11.662    74.029   -16.928   -80.980   -24.197    58.328 
 1130.000000   -34.221   -51.389    11.640    71.518   -16.935   -82.969   -24.269    56.601 
 1157.000000   -34.210   -45.559    11.627    68.915   -16.957   -84.917   -24.126    54.249 
 1184.000000   -34.904   -45.769    11.610    66.302   -16.940   -86.918   -23.966    52.063 
 1211.000000   -35.659   -45.653    11.589    63.972   -16.953   -88.836   -23.710    49.255 
 1238.000000   -35.677   -45.035    11.570    61.405   -16.960   -90.885   -23.465    46.580 
 1265.000000   -35.661   -40.808    11.566    58.871   -16.972   -92.900   -23.304    45.154 
 1292.000000   -35.761   -37.862    11.543    56.393   -16.969   -94.777   -23.220    43.563 
 1319.000000   -34.794   -35.750    11.522    53.743   -16.974   -96.869   -23.102    41.710 
 1346.000000   -35.150   -33.525    11.493    51.350   -16.982   -98.794   -23.003    39.170 
 1373.000000   -35.380   -31.555    11.501    48.768   -16.989  -100.823   -22.784    36.333 
 1400.000000   -34.890   -32.569    11.488    46.190   -17.007  -102.787   -22.699    34.752 
 1427.000000   -34.343   -26.579    11.473    43.640   -17.000  -104.784   -22.506    33.375 
 1454.000000   -34.763   -24.326    11.446    41.305   -17.014  -106.735   -22.427    31.458 
 1481.000000   -34.441   -28.151    11.457    38.786   -17.011  -108.708   -22.425    28.924 
 1508.000000   -33.984   -28.042    11.404    36.257   -17.027  -110.696   -22.456    26.802 
 1535.000000   -34.136   -27.284    11.403    33.717   -17.029  -112.676   -22.337    24.713 
 1562.000000   -33.638   -28.896    11.384    31.200   -17.023  -114.708   -22.187    22.467 
 1589.000000   -33.302   -22.712    11.381    28.696   -17.059  -116.674   -22.048    19.532 
 1616.000000   -33.373   -26.157    11.347    26.170   -17.066  -118.619   -22.074    18.456 
 1643.000000   -33.272   -28.171    11.335    23.575   -17.070  -120.714   -22.068    16.456 
 1670.000000   -32.553   -29.218    11.325    21.071   -17.073  -122.717   -22.072    14.393 
 1697.000000   -32.369   -23.589    11.313    18.663   -17.065  -124.652   -21.884    11.072 
 1724.000000   -32.868   -22.966    11.296    16.088   -17.080  -126.722   -21.710     8.348 
 1751.000000   -31.931   -28.932    11.256    13.668   -17.095  -128.613   -21.592     6.572 
 1778.000000   -30.939   -25.058    11.239    11.181   -17.085  -130.692   -21.445     5.439 
 1805.000000   -30.942   -27.704    11.233     8.540   -17.122  -132.507   -21.326     3.455 
 1832.000000   -31.284   -23.994    11.235     6.139   -17.105  -134.565   -21.334     0.976 
 1859.000000   -31.282   -25.145    11.209     3.731   -17.133  -136.446   -21.299    -2.473 
 1886.000000   -30.876   -27.131    11.171     1.201   -17.152  -138.466   -21.175    -4.471 
 1913.000000   -30.170   -28.227    11.166    -1.430   -17.144  -140.422   -21.036    -5.813 
 1940.000000   -30.227   -27.266    11.148    -3.797   -17.144  -142.434   -20.997    -7.925 
 1967.000000   -30.270   -28.142    11.131    -6.347   -17.154  -144.391   -20.980    -9.237 
 1994.000000   -30.264   -31.084    11.111    -8.727   -17.168  -146.353   -21.049   -11.280 
 2021.000000   -29.993   -33.362    11.116   -11.343   -17.188  -148.321   -21.095   -13.582 
 2048.000000   -29.484   -32.386    11.088   -13.958   -17.200  -150.325   -21.017   -16.636 
 2075.000000   -30.009   -29.896    11.090   -16.533   -17.200  -152.424   -20.888   -18.639 
 2102.000000   -29.978   -34.866    11.057   -18.809   -17.196  -154.387   -20.808   -20.513 
 2129.000000   -29.651   -41.038    11.033   -21.372   -17.207  -156.397   -20.850   -22.047 
 2156.000000   -29.245   -40.234    11.013   -23.643   -17.232  -158.174   -21.084   -23.755 
 2183.000000   -29.382   -40.721    11.027   -26.376   -17.231  -160.267   -21.135   -26.612 
 2210.000000   -29.211   -40.445    10.981   -28.779   -17.244  -162.360   -21.065   -29.559 
 2237.000000   -29.022   -42.117    10.970   -31.439   -17.267  -164.290   -20.983   -33.553 
 2264.000000   -28.981   -44.249    10.957   -33.728   -17.270  -166.210   -20.816   -35.545 
 2291.000000   -28.584   -46.891    10.907   -36.183   -17.267  -168.178   -20.694   -37.246 
 2318.000000   -28.798   -45.537    10.919   -38.696   -17.298  -170.201   -20.726   -38.942 
 2345.000000   -29.114   -47.769    10.905   -41.168   -17.277  -172.138   -20.822   -40.622 
 2372.000000   -28.669   -50.722    10.901   -43.737   -17.280  -174.268   -20.838   -42.967 
 2399.000000   -28.334   -52.744    10.880   -46.209   -17.311  -176.231   -20.723   -45.895 
 2426.000000   -28.420   -51.241    10.854   -48.586   -17.309  -178.226   -20.747   -48.060 
 2453.000000   -28.275   -50.261    10.851   -51.079   -17.322   179.764   -20.654   -49.475 
 2480.000000   -28.225   -57.680    10.812   -53.507   -17.381   177.888   -20.626   -52.913 
 2507.000000   -27.844   -58.938    10.785   -56.004   -17.356   175.915   -20.747   -54.132 
 2534.000000   -27.621   -60.005    10.797   -58.580   -17.367   173.828   -20.767   -56.208 
 2561.000000   -27.964   -59.670    10.775   -61.074   -17.377   171.885   -20.801   -59.279 
 2588.000000   -28.002   -62.422    10.743   -63.495   -17.393   169.801   -20.770   -61.281 
 2615.000000   -27.869   -68.721    10.713   -65.911   -17.425   167.962   -20.775   -64.713 
 2642.000000   -27.639   -72.061    10.701   -68.426   -17.404   166.046   -20.984   -66.420 
 2669.000000   -27.645   -68.603    10.690   -70.862   -17.425   164.030   -20.953   -68.549 
 2696.000000   -27.750   -65.511    10.686   -73.398   -17.437   161.992   -20.969   -71.365 
 2723.000000   -27.675   -66.487    10.656   -75.891   -17.420   159.839   -20.877   -73.985 
 2750.000000   -27.597   -68.161    10.648   -78.608   -17.441   157.711   -20.731   -75.646 
 2777.000000   -26.545   -72.781    10.587   -80.967   -17.518   155.451   -20.427   -78.548 
 2804.000000   -26.591   -73.001    10.605   -83.483   -17.486   153.735   -20.561   -80.500 
 2831.000000   -27.105   -78.037    10.545   -85.964   -17.589   152.020   -20.621   -86.161 
 2858.000000   -27.803   -79.967    10.545   -88.110   -17.523   149.986   -20.900   -87.619 
 2885.000000   -27.166   -80.512    10.533   -90.699   -17.534   147.969   -20.700   -89.810 
 2912.000000   -27.276   -81.717    10.496   -93.022   -17.527   146.299   -20.817   -91.904 
 2939.000000   -26.998   -79.992    10.495   -95.665   -17.555   144.201   -20.728   -93.206 
 2966.000000   -27.180   -81.571    10.487   -98.045   -17.541   142.140   -20.841   -94.844 
 2993.000000   -27.534   -87.439    10.454  -100.485   -17.581   140.084   -20.918   -96.866 
 3020.000000   -27.344   -96.142    10.407  -102.902   -17.640   138.299   -21.074  -102.091 
 3047.000000   -27.356   -90.135    10.417  -105.256   -17.594   136.302   -21.092  -103.149 
 3074.000000   -26.882   -89.850    10.384  -107.905   -17.605   134.230   -20.771  -104.730 
 3101.000000   -27.253   -92.882    10.375  -110.111   -17.625   132.642   -21.056  -107.795 
 3128.000000   -26.986   -93.519    10.362  -112.691   -17.624   130.312   -21.038  -107.819 
 3155.000000   -26.370   -96.416    10.346  -115.346   -17.626   128.066   -20.910  -110.706 
 3182.000000   -26.557   -99.625    10.315  -117.722   -17.705   126.033   -21.011  -115.703 
 3209.000000   -27.013  -100.860    10.320  -120.052   -17.712   124.397   -21.221  -119.663 
 3236.000000   -26.944  -102.256    10.293  -122.581   -17.701   122.357   -21.183  -121.943 
 3263.000000   -26.122  -102.985    10.289  -125.170   -17.704   120.131   -20.788  -122.842 
 3290.000000   -25.822  -108.595    10.208  -127.296   -17.797   118.312   -20.639  -127.472 
 3317.000000   -26.248  -103.736    10.239  -129.787   -17.746   116.428   -21.073  -128.122 
 3344.000000   -26.487  -105.420    10.213  -132.340   -17.740   114.473   -21.129  -129.186 
 3371.000000   -26.172  -107.861    10.202  -134.775   -17.757   112.551   -21.118  -132.927 
 3398.000000   -25.292  -106.841    10.204  -137.309   -17.730   110.187   -20.767  -134.445 
 3425.000000   -25.724  -113.634    10.132  -139.536   -17.845   108.308   -20.587  -139.736 
 3452.000000   -25.891  -113.329    10.136  -141.994   -17.824   106.671   -20.763  -140.459 
 3479.000000   -25.350  -113.402    10.158  -144.571   -17.780   104.373   -20.720  -139.329 
 3506.000000   -24.678  -115.378    10.120  -147.335   -17.770   101.962   -20.476  -140.299 
 3533.000000   -24.509  -125.867    10.006  -149.504   -17.973   100.103   -20.298  -149.375 
 3560.000000   -25.683  -119.626    10.076  -151.665   -17.904    98.920   -20.996  -151.328 
 3587.000000   -24.924  -122.947    10.016  -154.445   -17.929    96.304   -20.456  -152.443 
 3614.000000   -24.970  -126.096    10.012  -156.741   -17.924    94.595   -20.573  -154.012 
 3641.000000   -24.739  -124.460    10.020  -159.076   -17.925    92.658   -20.682  -155.113 
 3668.000000   -24.547  -126.133     9.980  -161.551   -17.950    90.449   -20.578  -159.055 
 3695.000000   -25.113  -127.329     9.974  -163.967   -17.958    88.559   -20.776  -161.425 
 3722.000000   -24.717  -127.575    10.006  -166.587   -17.942    86.581   -20.806  -163.241 
 3749.000000   -23.837  -127.322     9.981  -169.309   -17.879    84.159   -20.382  -163.454 
 3776.000000   -23.583  -136.702     9.871  -171.452   -18.058    81.985   -19.894  -170.076 
 3803.000000   -24.157  -138.210     9.844  -173.608   -18.108    80.400   -20.172  -173.404 
 3830.000000   -24.695  -137.646     9.876  -175.941   -18.067    78.818   -20.695  -174.673 
 3857.000000   -23.407  -142.083     9.828  -179.074   -18.052    75.847   -20.109  -175.557 
 3884.000000   -23.976  -144.337     9.830   179.177   -18.145    74.775   -20.557   178.032 
 3911.000000   -23.184  -142.814     9.794   176.470   -18.135    72.330   -20.075   176.748 
 3938.000000   -23.514  -141.737     9.796   174.257   -18.121    70.778   -20.061   174.774 
 3965.000000   -23.452  -144.985     9.764   171.706   -18.136    68.804   -20.122   173.522 
 3992.000000   -22.798  -147.038     9.745   168.964   -18.129    66.333   -19.900   173.154 
 4019.000000   -22.574  -149.421     9.722   166.676   -18.178    64.359   -19.817   168.956 
 4046.000000   -23.165  -149.081     9.726   164.601   -18.197    63.029   -20.175   164.809 
 4073.000000   -22.421  -149.750     9.688   161.726   -18.182    60.300   -19.631   163.735 
 4100.000000   -22.267  -153.157     9.667   159.377   -18.215    58.448   -19.356   161.753 
 4127.000000   -22.293  -159.409     9.593   157.258   -18.323    56.537   -19.160   158.157 
 4154.000000   -22.297  -160.721     9.550   155.017   -18.383    54.755   -19.160   154.876 
 4181.000000   -22.688  -159.191     9.591   152.608   -18.350    52.832   -19.484   153.102 
 4208.000000   -22.924  -161.069     9.591   150.545   -18.374    51.396   -19.723   149.996 
 4235.000000   -22.000  -161.085     9.580   147.453   -18.305    48.896   -19.398   150.397 
 4262.000000   -21.878  -161.017     9.577   145.141   -18.329    47.110   -19.296   148.198 
 4289.000000   -21.279  -164.642     9.510   142.442   -18.336    44.292   -18.866   146.387 
 4316.000000   -21.775  -167.116     9.513   140.250   -18.396    42.764   -19.137   144.065 
 4343.000000   -22.259  -172.557     9.465   138.272   -18.522    41.119   -19.248   138.368 
 4370.000000   -21.304  -170.862     9.482   135.579   -18.436    39.062   -19.203   138.358 
 4397.000000   -21.057  -171.847     9.418   133.086   -18.480    36.745   -18.887   134.440 
 4424.000000   -21.513  -172.352     9.418   130.928   -18.545    35.004   -18.895   131.019 
 4451.000000   -21.652  -177.351     9.397   128.595   -18.562    33.102   -18.775   129.619 
 4478.000000   -21.022  -176.874     9.442   125.911   -18.484    31.239   -18.852   130.922 
 4505.000000   -21.300   179.862     9.394   123.911   -18.622    29.617   -19.064   125.264 
 4532.000000   -20.594  -176.807     9.413   120.971   -18.488    27.377   -18.920   125.668 
 4559.000000   -20.298   178.139     9.324   118.320   -18.569    24.700   -18.292   122.493 
 4586.000000   -20.836   173.637     9.309   116.689   -18.705    23.513   -18.354   117.687 
 4613.000000   -20.553   173.332     9.320   114.330   -18.673    21.688   -18.306   118.176 
 4640.000000   -19.824   176.252     9.350   111.335   -18.586    19.669   -18.320   119.905 
 4667.000000   -19.478   173.986     9.291   108.530   -18.532    17.145   -18.133   120.515 
 4694.000000   -19.809   168.434     9.214   106.433   -18.638    14.880   -18.093   115.860 
 4721.000000   -20.142   164.335     9.216   104.555   -18.767    13.341   -18.288   110.136 
 4748.000000   -19.238   161.401     9.133   101.843   -18.766    10.694   -17.705   109.069 
 4775.000000   -19.477   166.662     9.226    99.729   -18.733     9.694   -18.092   107.941 
 4802.000000   -19.551   158.497     9.097    97.196   -18.800     6.844   -17.595   106.385 
 4829.000000   -19.950   160.144     9.196    95.027   -18.799     5.854   -18.188   106.150 
 4856.000000   -19.158   159.987     9.189    91.977   -18.691     3.870   -18.243   107.793 
 4883.000000   -18.903   153.360     9.049    89.814   -18.826     0.733   -17.688   101.717 
 4910.000000   -18.840   154.480     9.056    87.162   -18.790    -1.054   -17.667   100.209 
 4937.000000   -19.540   145.195     8.909    85.713   -19.043    -3.681   -17.162    92.971 
 4964.000000   -18.982   145.854     9.014    82.819   -18.920    -4.904   -17.507    95.110 
 4991.000000   -19.376   140.823     8.948    81.423   -19.156    -6.887   -17.609    89.472 
 5018.000000   -19.037   149.026     9.106    78.393   -18.971    -7.737   -18.199    92.383 
 5045.000000   -18.731   146.441     9.016    75.544   -18.934   -10.332   -17.991    90.160 
 5072.000000   -18.673   144.667     9.034    72.934   -18.902   -12.014   -18.028    89.211 
 5099.000000   -17.754   139.104     8.920    69.969   -18.838   -15.133   -17.155    88.796 
 5126.000000   -18.165   137.757     8.930    68.380   -18.998   -16.546   -17.331    84.445 
 5153.000000   -18.925   126.759     8.732    67.541   -19.393   -19.760   -16.938    74.617 
 5180.000000   -18.982   133.393     8.920    64.481   -19.245   -20.004   -17.754    77.643 
 5207.000000   -18.673   131.759     8.922    61.718   -19.196   -21.914   -17.779    77.530 
 5234.000000   -18.086   128.414     8.835    59.147   -19.177   -24.529   -17.286    75.388 
 5261.000000   -17.946   129.863     8.865    56.737   -19.164   -25.976   -17.303    73.768 
 5288.000000   -17.314   124.847     8.721    53.681   -19.081   -29.258   -16.599    74.258 
 5315.000000   -17.711   119.690     8.664    51.699   -19.174   -31.489   -16.436    72.077 
 5342.000000   -18.262   124.216     8.863    49.809   -19.286   -31.399   -17.489    70.079 
 5369.000000   -17.301   120.790     8.755    46.714   -19.145   -34.297   -17.000    70.860 
 5396.000000   -17.747   115.614     8.647    44.875   -19.335   -37.160   -16.778    64.522 
 5423.000000   -18.411   116.572     8.777    43.077   -19.468   -37.591   -17.425    61.687 
 5450.000000   -17.840   115.039     8.760    40.206   -19.385   -39.438   -17.244    63.062 
 5477.000000   -16.970   113.422     8.722    37.050   -19.226   -41.527   -16.929    65.015 
 5504.000000   -16.553   108.268     8.535    34.642   -19.224   -45.127   -16.306    62.054 
 5531.000000   -17.435   105.844     8.590    32.958   -19.424   -46.544   -16.892    57.666 
 5558.000000   -17.585   104.625     8.657    30.986   -19.511   -47.779   -17.339    54.974 
 5585.000000   -17.061   101.909     8.593    28.125   -19.451   -50.023   -16.899    54.626 
