! Mini-Circuits  
! S2P DATA File Format
! Type: MMIC Amplifier
! Model: ERA-1     Reference Data:RDF-960
! Note: All S Parameters are in dB deg format
! TEST CONDITIONS: INPUT POWER = -15dBm, Icc = 32mA, Vd = 3.21V @Temperature = +85degC
!
# MHz S DB R 50
!    FREQ       dB(S11)   PHS(S11)  dB(S21)   PHS(S21)  dB(S12)   PHS(S12)  dB(S22)   PHS(S22) 
   50.000000   -23.585    -2.153    11.774   174.693   -16.554    -4.301   -38.767     5.651 
   77.000000   -23.107    -3.018    11.805   172.316   -16.570    -6.061   -39.449    10.462 
  104.000000   -23.346    -5.809    11.771   169.538   -16.567    -7.950   -40.398    13.129 
  131.000000   -23.963    -9.067    11.761   166.945   -16.583    -9.819   -41.197    24.019 
  158.000000   -24.012   -10.689    11.761   164.403   -16.587   -11.979   -41.141    31.221 
  185.000000   -24.042   -14.300    11.753   161.798   -16.578   -13.927   -40.738    40.121 
  212.000000   -24.087   -17.081    11.745   159.135   -16.578   -15.947   -40.560    43.721 
  239.000000   -23.945   -21.234    11.747   156.552   -16.575   -17.961   -39.733    42.613 
  266.000000   -24.018   -23.257    11.720   153.931   -16.592   -19.819   -39.339    43.132 
  293.000000   -23.957   -25.610    11.727   151.275   -16.594   -21.764   -39.617    47.934 
  320.000000   -23.871   -26.862    11.719   148.650   -16.601   -23.654   -39.741    48.624 
  347.000000   -23.753   -29.367    11.702   146.155   -16.598   -25.723   -40.180    46.651 
  374.000000   -23.895   -30.983    11.682   143.523   -16.601   -27.769   -40.015    46.123 
  401.000000   -24.008   -30.985    11.659   141.003   -16.598   -29.635   -40.483    47.833 
  428.000000   -24.171   -33.286    11.662   138.308   -16.596   -31.683   -40.031    51.734 
  455.000000   -24.362   -35.068    11.641   135.778   -16.603   -33.607   -39.232    54.348 
  482.000000   -24.590   -36.945    11.646   133.278   -16.599   -35.521   -38.935    57.147 
  509.000000   -24.703   -42.324    11.618   130.684   -16.610   -37.523   -37.995    58.451 
  536.000000   -24.739   -42.488    11.635   128.130   -16.601   -39.553   -37.877    62.118 
  563.000000   -25.084   -44.862    11.586   125.440   -16.602   -41.587   -37.256    61.994 
  590.000000   -25.241   -47.865    11.584   122.857   -16.601   -43.514   -36.352    61.864 
  617.000000   -25.174   -51.206    11.569   120.280   -16.611   -45.525   -35.687    56.769 
  644.000000   -25.028   -52.777    11.553   117.695   -16.605   -47.484   -35.144    55.319 
  671.000000   -25.122   -54.717    11.556   115.122   -16.621   -49.521   -34.809    54.867 
  698.000000   -25.146   -57.071    11.520   112.550   -16.630   -51.466   -34.146    55.859 
  725.000000   -25.385   -58.180    11.531   110.016   -16.623   -53.495   -33.686    57.843 
  752.000000   -25.761   -60.140    11.515   107.403   -16.632   -55.536   -33.664    56.392 
  779.000000   -25.914   -62.803    11.485   104.921   -16.624   -57.487   -33.203    55.211 
  806.000000   -26.070   -62.540    11.488   102.406   -16.633   -59.411   -32.668    53.263 
  833.000000   -26.454   -64.754    11.460    99.809   -16.675   -61.336   -31.935    51.837 
  860.000000   -26.775   -69.526    11.474    97.226   -16.639   -63.391   -31.246    51.422 
  887.000000   -26.953   -70.460    11.441    94.613   -16.652   -65.447   -30.733    52.210 
  914.000000   -27.089   -69.118    11.419    92.213   -16.652   -67.389   -30.525    53.394 
  941.000000   -27.414   -72.844    11.407    89.600   -16.657   -69.410   -30.287    53.219 
  968.000000   -27.600   -73.432    11.402    87.231   -16.666   -71.411   -30.196    51.022 
  995.000000   -27.758   -76.736    11.388    84.485   -16.655   -73.327   -29.960    48.712 
 1022.000000   -27.916   -80.278    11.350    81.890   -16.663   -75.386   -29.614    45.643 
 1049.000000   -27.926   -79.813    11.368    79.450   -16.668   -77.310   -29.298    44.966 
 1076.000000   -28.261   -79.515    11.341    76.917   -16.670   -79.332   -28.916    44.460 
 1103.000000   -28.716   -82.236    11.327    74.251   -16.677   -81.341   -28.477    43.890 
 1130.000000   -28.498   -83.189    11.312    71.732   -16.682   -83.340   -28.583    42.497 
 1157.000000   -28.932   -81.985    11.297    69.216   -16.688   -85.288   -28.335    40.655 
 1184.000000   -29.394   -84.940    11.286    66.586   -16.693   -87.325   -28.032    39.282 
 1211.000000   -29.835   -87.748    11.275    64.226   -16.703   -89.308   -27.609    37.014 
 1238.000000   -30.014   -89.153    11.253    61.720   -16.713   -91.308   -27.201    34.791 
 1265.000000   -30.421   -89.426    11.243    59.182   -16.708   -93.290   -26.983    34.487 
 1292.000000   -30.738   -90.436    11.225    56.650   -16.708   -95.311   -26.858    33.332 
 1319.000000   -30.791   -88.082    11.201    54.051   -16.723   -97.289   -26.678    32.007 
 1346.000000   -31.323   -90.279    11.181    51.583   -16.724   -99.246   -26.527    29.698 
 1373.000000   -31.802   -91.761    11.178    49.051   -16.750  -101.377   -26.189    27.000 
 1400.000000   -31.762   -91.837    11.160    46.559   -16.753  -103.285   -26.062    25.971 
 1427.000000   -32.336   -90.065    11.155    44.020   -16.746  -105.238   -25.863    25.385 
 1454.000000   -33.086   -91.968    11.147    41.563   -16.764  -107.274   -25.754    23.718 
 1481.000000   -32.663   -93.955    11.144    39.026   -16.758  -109.312   -25.737    21.138 
 1508.000000   -33.075   -91.567    11.105    36.464   -16.782  -111.189   -25.810    19.039 
 1535.000000   -33.572   -93.487    11.103    34.033   -16.785  -113.181   -25.649    17.167 
 1562.000000   -33.511   -92.190    11.082    31.500   -16.790  -115.242   -25.415    15.194 
 1589.000000   -34.646   -89.024    11.077    28.902   -16.813  -117.249   -25.205    12.234 
 1616.000000   -34.651   -92.598    11.048    26.487   -16.813  -119.169   -25.228    11.878 
 1643.000000   -34.526   -94.337    11.041    23.929   -16.806  -121.210   -25.228     9.977 
 1670.000000   -34.452   -92.083    11.027    21.402   -16.830  -123.204   -25.248     8.057 
 1697.000000   -35.839   -87.963    11.024    18.994   -16.840  -125.118   -24.973     4.428 
 1724.000000   -36.752   -92.754    11.003    16.386   -16.825  -127.227   -24.719     1.861 
 1751.000000   -35.586   -88.779    10.958    13.913   -16.843  -129.240   -24.543     0.539 
 1778.000000   -35.943   -77.698    10.964    11.419   -16.842  -131.194   -24.361    -0.095 
 1805.000000   -35.947   -79.431    10.941     8.811   -16.864  -133.171   -24.184    -1.806 
 1832.000000   -37.844   -78.908    10.938     6.406   -16.867  -135.229   -24.151    -4.204 
 1859.000000   -38.117   -78.714    10.915     4.036   -16.883  -136.993   -24.068    -7.975 
 1886.000000   -37.659   -75.864    10.885     1.417   -16.880  -139.145   -23.875    -9.565 
 1913.000000   -36.842   -69.486    10.874    -1.127   -16.910  -141.166   -23.657   -10.466 
 1940.000000   -37.750   -64.714    10.868    -3.545   -16.896  -143.078   -23.603   -12.409 
 1967.000000   -38.008   -64.344    10.834    -6.046   -16.913  -145.061   -23.598   -13.371 
 1994.000000   -38.016   -68.778    10.811    -8.458   -16.917  -147.063   -23.666   -15.309 
 2021.000000   -37.786   -67.648    10.806   -11.155   -16.920  -149.068   -23.728   -17.547 
 2048.000000   -37.145   -58.948    10.794   -13.700   -16.954  -151.010   -23.574   -20.803 
 2075.000000   -39.409   -52.303    10.817   -16.204   -16.937  -153.150   -23.418   -22.624 
 2102.000000   -38.569   -62.004    10.783   -18.564   -16.942  -155.082   -23.297   -24.201 
 2129.000000   -37.323   -70.518    10.754   -21.127   -16.959  -157.135   -23.373   -25.509 
 2156.000000   -37.012   -63.235    10.745   -23.503   -16.999  -159.056   -23.684   -27.092 
 2183.000000   -37.635   -60.562    10.744   -26.103   -16.987  -161.150   -23.733   -30.211 
 2210.000000   -37.752   -55.150    10.701   -28.569   -16.990  -163.229   -23.630   -33.152 
 2237.000000   -37.078   -53.826    10.693   -31.214   -17.023  -165.171   -23.495   -37.710 
 2264.000000   -37.029   -55.905    10.679   -33.533   -17.013  -167.101   -23.271   -39.478 
 2291.000000   -36.275   -57.727    10.650   -35.964   -17.010  -169.065   -23.121   -40.879 
 2318.000000   -36.861   -51.559    10.640   -38.436   -17.053  -170.953   -23.140   -42.399 
 2345.000000   -37.660   -53.296    10.644   -40.963   -17.020  -173.122   -23.257   -43.907 
 2372.000000   -36.434   -56.464    10.645   -43.460   -17.045  -175.134   -23.303   -46.342 
 2399.000000   -35.808   -57.331    10.600   -45.932   -17.050  -177.160   -23.116   -49.355 
 2426.000000   -35.952   -50.403    10.588   -48.379   -17.062  -179.058   -23.112   -51.470 
 2453.000000   -35.416   -45.166    10.568   -50.921   -17.080   178.798   -22.976   -52.429 
 2480.000000   -35.315   -58.632    10.553   -53.254   -17.133   177.001   -22.906   -56.073 
 2507.000000   -34.436   -58.548    10.521   -55.702   -17.119   174.889   -23.064   -57.015 
 2534.000000   -33.927   -57.298    10.518   -58.354   -17.120   172.918   -23.075   -59.100 
 2561.000000   -34.461   -54.100    10.501   -60.779   -17.137   170.892   -23.100   -62.390 
 2588.000000   -34.558   -56.985    10.472   -63.299   -17.144   168.774   -23.073   -64.300 
 2615.000000   -34.428   -66.736    10.457   -65.698   -17.190   166.890   -23.077   -67.990 
 2642.000000   -34.037   -71.650    10.432   -68.166   -17.174   165.042   -23.343   -69.568 
 2669.000000   -33.828   -62.120    10.436   -70.632   -17.193   162.975   -23.323   -71.562 
 2696.000000   -33.748   -53.512    10.407   -73.149   -17.194   161.018   -23.341   -74.681 
 2723.000000   -33.526   -53.030    10.403   -75.653   -17.197   158.790   -23.216   -77.341 
 2750.000000   -33.343   -54.483    10.391   -78.346   -17.199   156.767   -23.030   -78.773 
 2777.000000   -31.518   -63.223    10.331   -80.727   -17.269   154.571   -22.638   -81.695 
 2804.000000   -31.429   -61.729    10.351   -83.325   -17.260   152.685   -22.788   -83.628 
 2831.000000   -32.512   -68.095    10.283   -85.690   -17.357   150.885   -22.824   -90.386 
 2858.000000   -33.886   -66.571    10.290   -87.909   -17.295   149.079   -23.176   -91.459 
 2885.000000   -32.304   -68.210    10.273   -90.490   -17.312   146.872   -22.923   -93.640 
 2912.000000   -32.558   -67.843    10.260   -92.837   -17.321   145.275   -23.045   -95.706 
 2939.000000   -31.737   -63.616    10.239   -95.478   -17.333   143.103   -22.926   -96.640 
 2966.000000   -31.936   -64.189    10.226   -97.797   -17.343   140.904   -23.084   -98.120 
 2993.000000   -32.753   -71.375    10.221  -100.310   -17.368   139.005   -23.147  -100.016 
 3020.000000   -32.894   -85.752    10.160  -102.679   -17.429   137.215   -23.252  -106.144 
 3047.000000   -32.286   -73.267    10.172  -105.080   -17.374   135.101   -23.279  -106.899 
 3074.000000   -31.273   -72.842    10.153  -107.689   -17.390   132.999   -22.873  -108.135 
 3101.000000   -31.894   -75.966    10.134  -109.983   -17.426   131.291   -23.218  -111.455 
 3128.000000   -31.244   -75.254    10.126  -112.527   -17.387   129.067   -23.198  -110.882 
 3155.000000   -30.442   -80.531    10.110  -115.214   -17.407   126.838   -23.055  -113.996 
 3182.000000   -30.831   -83.199    10.073  -117.503   -17.479   124.760   -23.122  -119.606 
 3209.000000   -31.379   -82.255    10.076  -119.929   -17.491   123.020   -23.383  -124.056 
 3236.000000   -31.159   -82.898    10.050  -122.461   -17.477   121.203   -23.297  -126.275 
 3263.000000   -29.908   -85.815    10.044  -124.988   -17.493   118.877   -22.816  -126.572 
 3290.000000   -29.580   -93.543     9.973  -127.160   -17.589   117.018   -22.584  -131.648 
 3317.000000   -29.716   -84.346    10.007  -129.638   -17.528   115.216   -23.115  -132.178 
 3344.000000   -29.959   -85.672     9.982  -132.249   -17.518   113.209   -23.202  -133.025 
 3371.000000   -29.519   -88.539     9.948  -134.628   -17.547   111.256   -23.147  -137.019 
 3398.000000   -28.059   -89.076     9.969  -137.202   -17.534   108.866   -22.715  -138.135 
 3425.000000   -28.907   -96.603     9.894  -139.441   -17.638   107.134   -22.450  -144.052 
 3452.000000   -28.921   -95.070     9.900  -141.866   -17.619   105.397   -22.679  -144.582 
 3479.000000   -28.069   -95.694     9.922  -144.437   -17.589   103.131   -22.684  -142.606 
 3506.000000   -27.102   -99.164     9.897  -147.177   -17.575   100.577   -22.414  -143.200 
 3533.000000   -27.262  -112.855     9.769  -149.329   -17.767    98.722   -22.091  -153.724 
 3560.000000   -28.371  -100.918     9.854  -151.508   -17.714    97.485   -22.939  -156.040 
 3587.000000   -27.439  -106.671     9.784  -154.365   -17.708    94.853   -22.320  -156.719 
 3614.000000   -27.507  -109.305     9.787  -156.592   -17.718    93.198   -22.472  -158.051 
 3641.000000   -27.006  -107.514     9.794  -159.027   -17.727    91.316   -22.561  -159.070 
 3668.000000   -26.733  -109.323     9.765  -161.494   -17.754    89.078   -22.415  -163.191 
 3695.000000   -27.274  -109.069     9.751  -163.934   -17.758    87.205   -22.678  -165.837 
 3722.000000   -26.746  -109.784     9.785  -166.474   -17.726    85.279   -22.698  -167.593 
 3749.000000   -25.515  -111.255     9.752  -169.271   -17.699    82.768   -22.188  -167.010 
 3776.000000   -25.574  -122.640     9.666  -171.398   -17.868    80.630   -21.535  -174.340 
 3803.000000   -26.190  -122.730     9.617  -173.557   -17.914    78.963   -21.853  -177.921 
 3830.000000   -26.689  -119.949     9.649  -175.890   -17.869    77.289   -22.462  -179.220 
 3857.000000   -25.230  -127.990     9.599  -178.998   -17.856    74.379   -21.763  -179.456 
 3884.000000   -25.918  -128.470     9.599   179.194   -17.945    73.254   -22.199   172.961 
 3911.000000   -24.801  -128.317     9.579   176.579   -17.939    70.858   -21.665   172.228 
 3938.000000   -25.021  -125.936     9.571   174.255   -17.927    69.249   -21.637   170.299 
 3965.000000   -24.980  -129.521     9.557   171.719   -17.942    67.366   -21.711   169.211 
 3992.000000   -24.174  -132.716     9.532   168.984   -17.933    64.824   -21.450   169.386 
 4019.000000   -23.911  -135.674     9.507   166.669   -17.993    62.777   -21.319   164.857 
 4046.000000   -24.485  -133.882     9.505   164.632   -18.001    61.515   -21.713   160.069 
 4073.000000   -23.563  -135.863     9.482   161.748   -18.003    58.675   -21.079   159.590 
 4100.000000   -23.442  -139.449     9.451   159.376   -18.020    56.845   -20.767   157.874 
 4127.000000   -23.588  -146.296     9.383   157.290   -18.134    54.896   -20.519   154.194 
 4154.000000   -23.586  -147.334     9.340   155.045   -18.205    52.996   -20.477   150.547 
 4181.000000   -23.832  -144.912     9.376   152.647   -18.188    51.255   -20.866   148.789 
 4208.000000   -24.080  -145.981     9.389   150.480   -18.200    49.641   -21.134   145.365 
 4235.000000   -22.944  -147.830     9.366   147.396   -18.146    47.337   -20.803   146.178 
 4262.000000   -22.721  -147.657     9.371   145.089   -18.150    45.273   -20.669   144.200 
 4289.000000   -22.163  -152.415     9.302   142.424   -18.173    42.703   -20.148   142.533 
 4316.000000   -22.625  -154.041     9.314   140.181   -18.213    41.152   -20.455   140.237 
 4343.000000   -23.280  -158.308     9.263   138.257   -18.352    39.515   -20.570   133.836 
 4370.000000   -22.105  -158.329     9.275   135.490   -18.281    37.222   -20.483   134.177 
 4397.000000   -21.745  -159.503     9.216   133.131   -18.318    35.006   -20.102   130.111 
 4424.000000   -22.227  -159.283     9.224   130.834   -18.373    33.296   -20.051   126.740 
 4451.000000   -22.512  -164.036     9.201   128.488   -18.400    31.329   -19.953   125.451 
 4478.000000   -21.637  -164.440     9.233   125.829   -18.327    29.553   -20.052   127.399 
 4505.000000   -21.930  -167.349     9.196   123.741   -18.466    27.901   -20.303   121.095 
 4532.000000   -21.034  -165.032     9.221   120.918   -18.359    25.655   -20.161   121.944 
 4559.000000   -20.802  -170.804     9.119   118.205   -18.409    22.996   -19.424   118.867 
 4586.000000   -21.468  -174.605     9.125   116.530   -18.551    21.705   -19.471   113.740 
 4613.000000   -21.082  -175.187     9.124   114.200   -18.532    19.932   -19.428   114.452 
 4640.000000   -20.174  -173.098     9.165   111.254   -18.430    17.951   -19.487   116.744 
 4667.000000   -19.821  -175.996     9.095   108.425   -18.380    15.262   -19.298   117.747 
 4694.000000   -20.224   178.859     9.014   106.257   -18.493    13.008   -19.224   112.788 
 4721.000000   -20.637   175.206     9.016   104.446   -18.636    11.379   -19.437   106.437 
 4748.000000   -19.695   170.897     8.931   101.727   -18.615     8.756   -18.768   105.761 
 4775.000000   -19.722   176.901     9.037    99.486   -18.589     7.930   -19.195   104.692 
 4802.000000   -20.014   168.601     8.897    97.057   -18.655     4.928   -18.604   103.249 
 4829.000000   -20.284   170.939     8.988    94.756   -18.648     3.950   -19.313   103.114 
 4856.000000   -19.393   169.747     8.989    91.781   -18.549     1.932   -19.387   105.353 
 4883.000000   -19.219   162.806     8.863    89.671   -18.671    -1.111   -18.754    99.098 
 4910.000000   -19.110   163.693     8.873    86.954   -18.653    -3.028   -18.686    97.597 
 4937.000000   -20.009   155.428     8.723    85.523   -18.904    -5.609   -18.129    89.960 
 4964.000000   -19.336   155.214     8.813    82.683   -18.791    -6.925   -18.485    92.498 
 4991.000000   -19.836   150.938     8.767    81.156   -19.019    -8.832   -18.598    86.531 
 5018.000000   -19.180   158.887     8.909    78.177   -18.834    -9.709   -19.264    89.740 
 5045.000000   -18.867   155.793     8.816    75.395   -18.813   -12.278   -19.025    87.618 
 5072.000000   -18.756   153.822     8.840    72.708   -18.788   -13.951   -19.075    86.900 
 5099.000000   -17.942   147.479     8.726    69.639   -18.699   -17.145   -18.112    86.952 
 5126.000000   -18.326   146.391     8.742    68.151   -18.852   -18.610   -18.294    82.302 
 5153.000000   -19.378   136.670     8.544    67.260   -19.270   -21.885   -17.835    71.724 
 5180.000000   -19.183   143.132     8.737    64.188   -19.123   -21.988   -18.765    74.911 
 5207.000000   -18.823   141.129     8.734    61.505   -19.084   -24.000   -18.833    75.075 
 5234.000000   -18.286   137.496     8.647    58.964   -19.080   -26.530   -18.297    73.014 
 5261.000000   -18.016   138.523     8.678    56.457   -19.061   -28.113   -18.305    71.534 
 5288.000000   -17.496   132.799     8.531    53.385   -18.971   -31.362   -17.536    72.382 
 5315.000000   -17.917   128.165     8.468    51.459   -19.066   -33.677   -17.349    70.273 
 5342.000000   -18.301   132.990     8.680    49.460   -19.204   -33.457   -18.523    68.106 
 5369.000000   -17.351   128.659     8.563    46.417   -19.042   -36.535   -17.970    69.340 
 5396.000000   -17.901   123.771     8.465    44.680   -19.232   -39.373   -17.723    62.403 
 5423.000000   -18.439   125.065     8.593    42.830   -19.371   -39.817   -18.414    59.520 
 5450.000000   -17.873   123.552     8.581    39.855   -19.298   -41.574   -18.214    61.471 
 5477.000000   -17.016   120.899     8.532    36.769   -19.145   -43.693   -17.891    63.829 
 5504.000000   -16.703   114.989     8.356    34.269   -19.126   -47.238   -17.197    60.717 
 5531.000000   -17.477   113.933     8.410    32.698   -19.308   -48.739   -17.838    56.152 
 5558.000000   -17.676   112.768     8.480    30.567   -19.426   -50.124   -18.345    53.281 
 5585.000000   -17.112   109.515     8.410    27.802   -19.367   -52.371   -17.843    53.185 
