! Mini-Circuits  
! S2P DATA File Format
! Type: MMIC Amplifier
! Model: ERA-1     Reference Data:RDF-960
! Note: All S Parameters are in dB deg format
! TEST CONDITIONS: INPUT POWER = -15dBm, Icc = 48mA, Vd = 3.67V @Temperature = -45degC
!
# MHz S DB R 50
!    FREQ       dB(S11)   PHS(S11)  dB(S21)   PHS(S21)  dB(S12)   PHS(S12)  dB(S22)   PHS(S22) 
   50.000000   -31.997    -7.391    12.551   174.566   -17.066    -4.090   -28.144   171.356 
   77.000000   -30.568    -1.172    12.574   172.200   -17.074    -6.021   -28.124   167.599 
  104.000000   -30.141    -5.328    12.565   169.506   -17.071    -8.061   -28.205   165.634 
  131.000000   -30.949    -5.760    12.545   166.812   -17.072    -9.939   -28.205   162.541 
  158.000000   -30.759    -3.847    12.537   164.183   -17.066   -12.210   -28.168   159.465 
  185.000000   -30.314    -6.133    12.538   161.490   -17.060   -14.152   -28.068   155.916 
  212.000000   -30.558    -5.222    12.533   158.935   -17.052   -16.181   -27.874   152.735 
  239.000000   -30.623    -8.896    12.536   156.210   -17.070   -18.188   -27.850   148.697 
  266.000000   -31.206   -10.983    12.521   153.471   -17.060   -20.240   -27.672   144.353 
  293.000000   -31.340   -14.460    12.515   150.951   -17.069   -22.153   -27.271   140.676 
  320.000000   -31.218   -15.726    12.513   148.246   -17.065   -24.101   -26.993   136.734 
  347.000000   -31.185   -21.637    12.500   145.651   -17.066   -26.203   -26.946   133.483 
  374.000000   -31.507   -22.601    12.476   142.975   -17.078   -28.311   -26.840   129.407 
  401.000000   -31.581   -20.161    12.454   140.375   -17.069   -30.238   -26.716   126.875 
  428.000000   -31.753   -20.749    12.468   137.752   -17.068   -32.355   -26.424   123.675 
  455.000000   -32.003   -21.136    12.437   135.157   -17.067   -34.355   -26.149   120.297 
  482.000000   -32.415   -18.174    12.451   132.649   -17.066   -36.373   -25.876   118.428 
  509.000000   -33.064   -24.117    12.417   129.844   -17.072   -38.340   -25.585   115.322 
  536.000000   -32.925   -19.169    12.420   127.298   -17.074   -40.453   -25.389   113.873 
  563.000000   -33.754   -16.167    12.382   124.548   -17.073   -42.471   -25.169   111.151 
  590.000000   -34.566   -15.827    12.386   121.951   -17.073   -44.482   -24.857   108.019 
  617.000000   -34.867   -20.724    12.374   119.280   -17.072   -46.619   -24.744   104.278 
  644.000000   -34.451   -20.127    12.363   116.643   -17.064   -48.556   -24.545   101.136 
  671.000000   -34.709   -20.270    12.357   114.010   -17.083   -50.625   -24.374    98.540 
  698.000000   -34.530   -22.416    12.328   111.485   -17.078   -52.688   -24.107    95.912 
  725.000000   -34.560   -17.367    12.324   108.856   -17.086   -54.665   -23.812    93.964 
  752.000000   -35.184   -14.749    12.313   106.228   -17.076   -56.715   -23.752    91.752 
  779.000000   -35.548   -14.927    12.286   103.690   -17.073   -58.675   -23.573    89.043 
  806.000000   -34.695    -9.106    12.301   101.035   -17.090   -60.751   -23.369    86.041 
  833.000000   -35.257    -3.807    12.253    98.474   -17.103   -62.781   -23.111    82.999 
  860.000000   -36.300    -3.689    12.271    95.789   -17.099   -65.017   -22.794    80.270 
  887.000000   -35.714     0.872    12.243    93.225   -17.093   -66.989   -22.532    78.276 
  914.000000   -34.340     4.795    12.224    90.692   -17.093   -68.928   -22.378    76.797 
  941.000000   -34.915     7.494    12.203    88.051   -17.093   -70.994   -22.192    74.812 
  968.000000   -34.093     9.105    12.203    85.584   -17.101   -73.003   -22.094    72.559 
  995.000000   -34.315     9.798    12.195    82.877   -17.107   -75.087   -21.998    69.947 
 1022.000000   -34.645    10.858    12.160    80.232   -17.104   -77.189   -21.843    66.608 
 1049.000000   -33.642     9.063    12.160    77.734   -17.106   -79.158   -21.648    64.571 
 1076.000000   -32.931    11.446    12.137    75.132   -17.112   -81.247   -21.455    62.242 
 1103.000000   -32.969    14.192    12.141    72.431   -17.118   -83.215   -21.220    59.954 
 1130.000000   -32.627     9.808    12.120    69.840   -17.122   -85.250   -21.242    57.867 
 1157.000000   -31.760    10.467    12.106    67.313   -17.133   -87.444   -21.117    55.311 
 1184.000000   -31.837    12.679    12.077    64.688   -17.120   -89.330   -20.980    52.809 
 1211.000000   -31.725    14.091    12.069    62.179   -17.135   -91.405   -20.771    50.024 
 1238.000000   -31.397    12.502    12.047    59.600   -17.139   -93.404   -20.616    47.295 
 1265.000000   -30.758    12.609    12.035    57.070   -17.139   -95.549   -20.456    45.567 
 1292.000000   -30.342    12.463    12.015    54.487   -17.138   -97.551   -20.334    43.718 
 1319.000000   -29.604     9.488    12.014    51.804   -17.166   -99.708   -20.226    41.750 
 1346.000000   -29.337    10.291    11.981    49.326   -17.151  -101.651   -20.084    39.336 
 1373.000000   -29.104    10.789    11.972    46.766   -17.169  -103.762   -19.917    36.576 
 1400.000000   -28.828     7.877    11.953    44.217   -17.168  -105.719   -19.818    34.698 
 1427.000000   -28.202     8.264    11.943    41.585   -17.169  -107.820   -19.654    32.879 
 1454.000000   -28.219     8.745    11.917    39.169   -17.171  -109.731   -19.596    30.662 
 1481.000000   -28.232     4.689    11.918    36.545   -17.177  -111.778   -19.563    28.102 
 1508.000000   -27.948     2.479    11.888    33.966   -17.187  -113.816   -19.621    25.840 
 1535.000000   -27.852     1.097    11.881    31.409   -17.197  -115.976   -19.532    23.693 
 1562.000000   -27.569    -1.829    11.865    28.870   -17.179  -118.077   -19.418    21.378 
 1589.000000   -27.082    -0.962    11.849    26.247   -17.203  -120.050   -19.320    18.600 
 1616.000000   -27.108    -3.878    11.823    23.732   -17.213  -122.015   -19.324    17.094 
 1643.000000   -27.003    -6.138    11.817    21.159   -17.209  -124.143   -19.308    14.813 
 1670.000000   -26.666    -8.816    11.794    18.704   -17.227  -126.207   -19.310    12.749 
 1697.000000   -26.405    -7.326    11.804    16.151   -17.237  -128.230   -19.160     9.411 
 1724.000000   -26.569    -7.999    11.774    13.558   -17.220  -130.201   -19.020     6.663 
 1751.000000   -26.252   -13.066    11.738    10.994   -17.241  -132.388   -18.940     4.638 
 1778.000000   -25.683   -13.927    11.725     8.497   -17.257  -134.400   -18.833     2.971 
 1805.000000   -25.752   -16.582    11.720     5.871   -17.265  -136.401   -18.764     0.824 
 1832.000000   -25.718   -15.514    11.712     3.375   -17.266  -138.543   -18.717    -1.477 
 1859.000000   -25.717   -18.738    11.688     0.893   -17.273  -140.382   -18.729    -4.647 
 1886.000000   -25.339   -21.775    11.653    -1.635   -17.275  -142.612   -18.637    -6.682 
 1913.000000   -24.932   -24.503    11.637    -4.362   -17.280  -144.440   -18.545    -8.129 
 1940.000000   -24.783   -25.828    11.620    -6.790   -17.293  -146.558   -18.516   -10.039 
 1967.000000   -24.672   -27.366    11.602    -9.320   -17.300  -148.612   -18.502   -11.403 
 1994.000000   -24.565   -30.253    11.581   -11.761   -17.279  -150.653   -18.541   -13.538 
 2021.000000   -24.389   -31.996    11.588   -14.487   -17.303  -152.761   -18.552   -15.786 
 2048.000000   -24.085   -32.328    11.570   -17.099   -17.308  -154.707   -18.477   -18.616 
 2075.000000   -24.381   -31.980    11.583   -19.665   -17.303  -156.891   -18.377   -20.870 
 2102.000000   -24.314   -35.869    11.540   -22.017   -17.329  -158.905   -18.337   -23.044 
 2129.000000   -24.283   -40.569    11.524   -24.571   -17.333  -160.883   -18.379   -24.932 
 2156.000000   -24.168   -41.515    11.502   -26.973   -17.356  -162.934   -18.587   -26.977 
 2183.000000   -24.304   -43.008    11.513   -29.640   -17.330  -165.042   -18.641   -29.818 
 2210.000000   -24.191   -44.618    11.460   -32.188   -17.363  -167.190   -18.589   -32.496 
 2237.000000   -24.046   -47.662    11.458   -34.804   -17.365  -169.142   -18.583   -36.009 
 2264.000000   -23.930   -50.613    11.441   -37.199   -17.376  -171.157   -18.485   -38.080 
 2291.000000   -23.679   -53.389    11.392   -39.695   -17.376  -173.130   -18.402   -39.906 
 2318.000000   -23.775   -53.870    11.398   -42.308   -17.393  -175.301   -18.431   -41.688 
 2345.000000   -23.848   -56.483    11.391   -44.697   -17.373  -177.216   -18.511   -43.476 
 2372.000000   -23.511   -59.497    11.383   -47.347   -17.393  -179.401   -18.498   -45.746 
 2399.000000   -23.329   -61.715    11.354   -49.880   -17.398   178.490   -18.421   -48.505 
 2426.000000   -23.292   -61.688    11.337   -52.331   -17.406   176.416   -18.429   -50.586 
 2453.000000   -23.078   -61.664    11.323   -54.868   -17.400   174.276   -18.304   -51.979 
 2480.000000   -23.142   -67.268    11.290   -57.334   -17.435   172.466   -18.337   -55.271 
 2507.000000   -22.872   -68.813    11.274   -59.823   -17.439   170.426   -18.410   -56.699 
 2534.000000   -22.668   -69.983    11.263   -62.520   -17.449   168.306   -18.390   -58.946 
 2561.000000   -22.919   -70.814    11.241   -64.920   -17.464   166.278   -18.453   -61.885 
 2588.000000   -22.935   -73.853    11.204   -67.520   -17.464   164.183   -18.445   -64.013 
 2615.000000   -22.869   -78.046    11.173   -69.955   -17.514   162.088   -18.485   -67.338 
 2642.000000   -22.750   -80.534    11.174   -72.538   -17.483   160.275   -18.640   -69.079 
 2669.000000   -22.887   -80.140    11.181   -74.974   -17.488   158.096   -18.655   -71.384 
 2696.000000   -23.045   -79.884    11.162   -77.526   -17.476   156.085   -18.702   -73.997 
 2723.000000   -23.076   -82.429    11.162   -80.112   -17.483   153.753   -18.690   -76.696 
 2750.000000   -22.898   -84.234    11.126   -82.769   -17.501   151.662   -18.590   -78.363 
 2777.000000   -22.404   -89.319    11.069   -85.181   -17.578   149.591   -18.468   -81.915 
 2804.000000   -22.319   -89.467    11.087   -87.844   -17.552   147.504   -18.485   -83.343 
 2831.000000   -22.832   -94.826    11.023   -90.271   -17.648   145.849   -18.730   -88.712 
 2858.000000   -22.942   -97.257    11.031   -92.623   -17.574   143.804   -18.847   -90.224 
 2885.000000   -22.482   -98.285    11.021   -95.160   -17.577   141.535   -18.698   -92.537 
 2912.000000   -22.564   -98.958    10.990   -97.539   -17.576   139.832   -18.779   -94.284 
 2939.000000   -22.469   -98.982    10.983  -100.257   -17.602   137.674   -18.731   -96.137 
 2966.000000   -22.609  -101.255    10.966  -102.695   -17.594   135.486   -18.822   -98.325 
 2993.000000   -22.853  -105.340    10.949  -105.155   -17.606   133.445   -18.913  -100.330 
 3020.000000   -22.470  -109.986    10.910  -107.662   -17.680   131.275   -18.903  -104.763 
 3047.000000   -22.798  -108.436    10.900  -109.986   -17.621   129.406   -19.046  -106.799 
 3074.000000   -22.387  -109.233    10.883  -112.719   -17.658   127.153   -18.688  -108.885 
 3101.000000   -22.763  -111.883    10.878  -114.995   -17.640   125.502   -19.054  -111.490 
 3128.000000   -22.717  -113.438    10.858  -117.659   -17.639   123.283   -19.051  -112.399 
 3155.000000   -22.351  -116.851    10.844  -120.236   -17.666   120.901   -18.949  -115.874 
 3182.000000   -22.543  -119.323    10.819  -122.715   -17.719   118.901   -19.119  -119.712 
 3209.000000   -22.569  -123.493    10.796  -125.202   -17.764   116.908   -19.134  -124.279 
 3236.000000   -22.674  -124.362    10.766  -127.650   -17.716   115.143   -19.226  -125.771 
 3263.000000   -22.094  -125.961    10.760  -130.356   -17.733   112.757   -18.844  -127.132 
 3290.000000   -22.024  -129.635    10.696  -132.403   -17.808   110.997   -18.920  -131.212 
 3317.000000   -22.326  -127.903    10.731  -135.024   -17.736   109.004   -19.212  -131.946 
 3344.000000   -22.312  -130.163    10.705  -137.668   -17.750   106.791   -19.201  -133.791 
 3371.000000   -22.102  -131.144    10.688  -140.029   -17.763   104.829   -19.178  -137.246 
 3398.000000   -21.566  -130.137    10.692  -142.688   -17.753   102.310   -18.851  -139.152 
 3425.000000   -22.023  -134.868    10.621  -144.907   -17.821   100.668   -18.816  -144.229 
 3452.000000   -22.158  -135.466    10.625  -147.382   -17.794    98.815   -18.990  -145.299 
 3479.000000   -21.874  -137.037    10.630  -150.155   -17.798    96.354   -18.876  -145.963 
 3506.000000   -21.546  -137.913    10.600  -152.811   -17.793    93.817   -18.698  -147.112 
 3533.000000   -21.668  -147.080    10.492  -154.860   -17.979    92.324   -18.769  -156.109 
 3560.000000   -22.254  -142.602    10.580  -157.336   -17.858    90.539   -19.120  -156.379 
 3587.000000   -22.030  -147.848    10.496  -159.965   -17.923    88.168   -18.816  -159.723 
 3614.000000   -21.998  -149.872    10.492  -162.364   -17.900    86.350   -18.917  -160.580 
 3641.000000   -21.898  -149.594    10.519  -164.805   -17.895    84.338   -18.965  -162.474 
 3668.000000   -21.883  -151.768    10.465  -167.244   -17.912    82.111   -18.959  -166.061 
 3695.000000   -22.211  -153.843    10.474  -169.829   -17.904    80.176   -19.009  -168.469 
 3722.000000   -21.874  -154.140    10.494  -172.506   -17.869    78.012   -19.015  -170.207 
 3749.000000   -21.167  -155.237    10.430  -175.320   -17.890    75.309   -18.512  -171.948 
 3776.000000   -21.142  -158.766    10.397  -177.523   -17.959    73.346   -18.409  -176.009 
 3803.000000   -21.575  -164.424    10.333  -179.509   -18.089    71.858   -18.585   178.253 
 3830.000000   -21.782  -164.389    10.353   177.804   -17.994    69.727   -18.804   178.410 
 3857.000000   -20.943  -168.251    10.289   174.883   -18.030    66.909   -18.350   175.443 
 3884.000000   -21.476  -170.492    10.314   173.027   -18.091    65.813   -18.716   170.226 
 3911.000000   -21.345  -169.753    10.287   170.407   -18.081    63.535   -18.471   168.424 
 3938.000000   -21.463  -171.480    10.267   167.993   -18.079    61.627   -18.287   166.606 
 3965.000000   -21.277  -172.329    10.277   165.342   -18.030    59.626   -18.443   166.498 
 3992.000000   -20.525  -175.937    10.216   162.610   -18.093    56.942   -18.082   164.100 
 4019.000000   -20.516  -177.910    10.201   160.269   -18.120    54.941   -18.041   160.675 
 4046.000000   -20.986  -178.156    10.213   158.096   -18.100    53.482   -18.313   157.329 
 4073.000000   -20.493   178.175    10.133   155.436   -18.212    50.838   -17.704   153.746 
 4100.000000   -20.380   178.706    10.171   152.838   -18.133    48.995   -17.667   153.719 
 4127.000000   -19.745   173.589    10.058   150.274   -18.237    46.274   -17.113   151.579 
 4154.000000   -20.145   171.146    10.028   148.320   -18.302    44.932   -17.351   146.995 
 4181.000000   -20.784   168.639    10.062   146.133   -18.322    43.321   -17.640   143.611 
 4208.000000   -20.977   169.959    10.109   143.733   -18.221    41.527   -17.967   142.638 
 4235.000000   -20.390   168.985    10.065   140.695   -18.213    39.144   -17.599   141.201 
 4262.000000   -20.194   168.980    10.053   138.201   -18.214    36.846   -17.413   139.635 
 4289.000000   -19.976   164.644    10.011   135.686   -18.250    34.509   -17.279   137.854 
 4316.000000   -19.947   161.588     9.975   133.255   -18.303    32.467   -17.171   135.328 
 4343.000000   -20.298   157.837     9.977   131.166   -18.345    31.037   -17.507   131.257 
 4370.000000   -19.654   159.491     9.972   128.369   -18.277    28.635   -17.302   130.596 
 4397.000000   -19.475   156.969     9.874   125.971   -18.361    26.170   -16.916   125.935 
 4424.000000   -20.034   154.695     9.889   123.770   -18.432    24.593   -16.993   122.848 
 4451.000000   -20.193   149.769     9.877   121.366   -18.447    22.701   -16.983   121.031 
 4478.000000   -19.244   148.035     9.839   118.799   -18.452    20.089   -16.762   119.650 
 4505.000000   -19.708   150.111     9.898   116.354   -18.404    18.998   -17.194   118.415 
 4532.000000   -19.535   149.306     9.869   113.788   -18.377    16.470   -16.975   116.107 
 4559.000000   -18.634   142.425     9.697   110.786   -18.471    12.952   -16.001   113.139 
 4586.000000   -19.463   139.411     9.769   109.306   -18.557    12.531   -16.537   109.442 
 4613.000000   -19.418   140.718     9.814   106.850   -18.498    10.916   -16.591   109.948 
 4640.000000   -18.875   140.969     9.808   104.023   -18.460     8.395   -16.453   109.593 
 4667.000000   -18.963   138.376     9.773   101.409   -18.439     6.358   -16.540   109.117 
 4694.000000   -18.661   132.076     9.657    99.022   -18.551     3.530   -16.194   105.137 
 4721.000000   -18.870   128.081     9.681    97.147   -18.648     2.161   -16.440   100.161 
 4748.000000   -18.683   129.795     9.697    94.614   -18.625     0.501   -16.311    98.906 
 4775.000000   -18.160   130.172     9.651    91.764   -18.560    -2.176   -15.931    98.837 
 4802.000000   -18.375   120.243     9.548    89.781   -18.704    -4.478   -15.757    96.222 
 4829.000000   -18.551   122.321     9.661    87.275   -18.630    -5.671   -16.237    96.032 
 4856.000000   -17.786   123.008     9.627    84.144   -18.540    -8.096   -16.076    96.791 
 4883.000000   -17.758   116.999     9.500    82.402   -18.741   -10.760   -15.791    90.243 
 4910.000000   -17.937   115.314     9.484    79.869   -18.775   -12.795   -15.690    87.568 
 4937.000000   -17.869   116.067     9.525    77.228   -18.671   -14.427   -15.695    87.240 
 4964.000000   -17.290   109.267     9.430    74.830   -18.771   -17.228   -15.347    84.848 
 4991.000000   -17.723   109.617     9.501    73.030   -18.845   -18.143   -15.812    82.562 
 5018.000000   -17.777   113.173     9.568    70.325   -18.740   -19.853   -16.023    82.038 
 5045.000000   -17.622   109.791     9.484    67.588   -18.765   -22.356   -15.889    79.155 
 5072.000000   -17.253   108.223     9.485    64.620   -18.673   -24.552   -15.708    79.031 
 5099.000000   -16.597   101.931     9.316    62.311   -18.761   -27.662   -15.017    75.882 
 5126.000000   -16.828   101.812     9.332    60.146   -18.812   -29.329   -15.038    73.789 
 5153.000000   -17.007    94.193     9.214    58.747   -19.062   -31.774   -14.970    68.361 
 5180.000000   -17.304    95.846     9.349    55.882   -18.969   -32.761   -15.408    69.318 
 5207.000000   -17.480    95.363     9.409    53.459   -18.953   -34.045   -15.677    67.555 
 5234.000000   -17.029    93.392     9.340    50.942   -18.964   -36.567   -15.384    65.110 
 5261.000000   -16.473    94.576     9.319    47.829   -18.815   -38.867   -15.081    65.859 
 5288.000000   -16.563    90.153     9.260    45.537   -18.904   -41.091   -14.930    63.713 
 5315.000000   -16.486    79.737     9.051    44.110   -19.135   -44.429   -14.398    58.732 
 5342.000000   -16.702    84.258     9.273    41.337   -19.045   -44.736   -15.155    59.352 
 5369.000000   -15.783    82.807     9.134    38.134   -18.908   -48.021   -14.591    58.989 
 5396.000000   -16.511    79.469     9.151    36.566   -19.114   -49.455   -14.909    54.218 
 5423.000000   -17.030    78.948     9.275    34.637   -19.219   -50.148   -15.326    51.230 
 5450.000000   -16.097    78.895     9.202    31.114   -19.005   -52.689   -14.910    53.564 
 5477.000000   -15.598    75.134     9.080    28.622   -19.026   -55.671   -14.545    51.665 
 5504.000000   -15.827    74.120     9.068    26.444   -19.065   -57.592   -14.564    49.425 
 5531.000000   -15.921    70.210     9.051    24.193   -19.121   -59.797   -14.683    46.358 
 5558.000000   -16.120    67.636     9.103    22.187   -19.220   -61.280   -14.954    43.796 
 5585.000000   -15.623    63.930     8.953    19.552   -19.213   -64.231   -14.451    41.847 
