! Mini-Circuits  
! S2P DATA File Format
! Type: MMIC Amplifier
! Model: ERA-1     Reference Data:RDF-960
! Note: All S Parameters are in dB deg format
! TEST CONDITIONS: INPUT POWER = -15dBm, Icc = 48mA, Vd = 3.49V @Temperature = +25degC
!
# MHz S DB R 50
!    FREQ       dB(S11)   PHS(S11)  dB(S21)   PHS(S21)  dB(S12)   PHS(S12)  dB(S22)   PHS(S22) 
   50.000000   -31.595    -1.558    12.420   174.624   -16.995    -4.176   -28.800   170.904 
   77.000000   -30.371     0.010    12.452   172.200   -17.012    -5.991   -28.558   167.572 
  104.000000   -30.570    -2.318    12.432   169.465   -17.016    -7.917   -28.397   164.726 
  131.000000   -31.553    -4.004    12.409   166.880   -17.021    -9.783   -28.125   160.989 
  158.000000   -31.733    -5.676    12.415   164.304   -17.015   -11.991   -27.991   157.208 
  185.000000   -31.559    -8.323    12.401   161.691   -17.022   -13.933   -27.821   153.314 
  212.000000   -31.432   -10.295    12.406   159.025   -17.007   -15.919   -27.689   150.535 
  239.000000   -31.090   -13.868    12.398   156.466   -17.018   -17.902   -27.660   146.763 
  266.000000   -31.409   -14.582    12.388   153.677   -17.016   -19.896   -27.573   143.575 
  293.000000   -31.568   -16.042    12.378   151.174   -17.023   -21.806   -27.250   140.983 
  320.000000   -31.372   -15.754    12.367   148.552   -17.018   -23.700   -27.008   137.990 
  347.000000   -31.413   -19.017    12.341   145.883   -17.026   -25.791   -26.990   135.600 
  374.000000   -31.747   -18.890    12.327   143.334   -17.025   -27.809   -26.892   132.065 
  401.000000   -31.851   -17.454    12.315   140.724   -17.030   -29.708   -26.747   129.827 
  428.000000   -32.313   -19.092    12.306   138.089   -17.026   -31.723   -26.498   126.569 
  455.000000   -32.566   -19.536    12.310   135.551   -17.035   -33.710   -26.230   122.903 
  482.000000   -33.006   -18.849    12.307   133.039   -17.041   -35.686   -26.027   120.454 
  509.000000   -33.659   -27.050    12.272   130.320   -17.031   -37.685   -25.789   117.067 
  536.000000   -33.244   -22.619    12.264   127.793   -17.034   -39.716   -25.627   115.227 
  563.000000   -34.121   -21.580    12.238   125.076   -17.045   -41.728   -25.456   112.444 
  590.000000   -34.655   -22.495    12.233   122.579   -17.041   -43.661   -25.192   109.263 
  617.000000   -34.739   -26.242    12.228   119.927   -17.036   -45.632   -25.106   105.618 
  644.000000   -34.410   -26.353    12.203   117.370   -17.040   -47.670   -24.923   102.610 
  671.000000   -34.769   -24.241    12.194   114.694   -17.055   -49.625   -24.751   100.118 
  698.000000   -34.794   -25.567    12.177   112.209   -17.062   -51.683   -24.439    97.598 
  725.000000   -35.033   -20.691    12.175   109.504   -17.060   -53.571   -24.142    95.616 
  752.000000   -35.912   -19.273    12.150   106.972   -17.060   -55.622   -24.063    93.478 
  779.000000   -36.448   -19.182    12.137   104.433   -17.051   -57.536   -23.881    90.696 
  806.000000   -35.852   -13.113    12.132   101.904   -17.063   -59.691   -23.696    87.662 
  833.000000   -36.508    -9.050    12.102    99.299   -17.068   -61.575   -23.447    84.551 
  860.000000   -38.048    -9.932    12.110    96.680   -17.074   -63.557   -23.153    81.694 
  887.000000   -37.368    -5.233    12.079    94.178   -17.074   -65.698   -22.905    79.661 
  914.000000   -35.920     0.493    12.052    91.676   -17.074   -67.665   -22.753    78.156 
  941.000000   -36.797     2.170    12.049    89.014   -17.075   -69.568   -22.572    76.321 
  968.000000   -35.756     4.359    12.036    86.627   -17.093   -71.583   -22.488    73.978 
  995.000000   -36.105     5.698    12.022    83.949   -17.068   -73.644   -22.405    71.265 
 1022.000000   -36.644     6.121    11.998    81.283   -17.095   -75.625   -22.276    68.130 
 1049.000000   -35.576     4.212    11.997    78.842   -17.097   -77.631   -22.083    65.977 
 1076.000000   -34.610     8.336    11.974    76.324   -17.091   -79.695   -21.897    63.741 
 1103.000000   -34.795    11.560    11.970    73.589   -17.090   -81.623   -21.656    61.551 
 1130.000000   -34.312     7.280    11.947    71.102   -17.101   -83.567   -21.668    59.603 
 1157.000000   -33.253     9.452    11.932    68.618   -17.115   -85.622   -21.533    57.176 
 1184.000000   -33.430    12.655    11.908    65.931   -17.118   -87.540   -21.394    54.867 
 1211.000000   -33.425    14.389    11.903    63.506   -17.115   -89.524   -21.195    52.033 
 1238.000000   -33.154    13.617    11.871    60.964   -17.120   -91.615   -21.022    49.175 
 1265.000000   -32.664    14.194    11.864    58.442   -17.118   -93.496   -20.876    47.425 
 1292.000000   -32.192    14.195    11.845    55.925   -17.128   -95.537   -20.778    45.515 
 1319.000000   -31.369    10.502    11.831    53.328   -17.148   -97.638   -20.686    43.590 
 1346.000000   -31.083    11.057    11.800    50.857   -17.144   -99.612   -20.571    41.226 
 1373.000000   -30.876    10.942    11.806    48.328   -17.167  -101.637   -20.421    38.524 
 1400.000000   -30.545     7.448    11.770    45.839   -17.156  -103.525   -20.351    36.715 
 1427.000000   -29.799     8.196    11.764    43.186   -17.162  -105.570   -20.220    34.994 
 1454.000000   -29.836     9.000    11.738    40.826   -17.174  -107.453   -20.163    32.883 
 1481.000000   -29.758     4.699    11.748    38.286   -17.176  -109.448   -20.135    30.438 
 1508.000000   -29.377     2.930    11.709    35.747   -17.187  -111.485   -20.162    28.187 
 1535.000000   -29.229     2.814    11.711    33.241   -17.182  -113.510   -20.074    26.074 
 1562.000000   -28.899    -0.676    11.680    30.697   -17.199  -115.647   -19.959    23.921 
 1589.000000   -28.470     0.721    11.661    28.111   -17.215  -117.558   -19.862    21.015 
 1616.000000   -28.576    -1.613    11.647    25.583   -17.216  -119.500   -19.879    19.460 
 1643.000000   -28.504    -3.790    11.643    23.025   -17.214  -121.531   -19.871    17.290 
 1670.000000   -28.131    -6.979    11.609    20.583   -17.239  -123.607   -19.875    15.112 
 1697.000000   -27.855    -5.413    11.599    18.134   -17.223  -125.600   -19.734    11.893 
 1724.000000   -28.006    -6.231    11.592    15.501   -17.255  -127.588   -19.622     9.367 
 1751.000000   -27.616   -12.023    11.545    13.073   -17.255  -129.532   -19.517     7.418 
 1778.000000   -26.871   -12.552    11.540    10.542   -17.251  -131.522   -19.425     6.012 
 1805.000000   -26.859   -15.097    11.529     7.995   -17.265  -133.497   -19.349     4.028 
 1832.000000   -26.857   -13.572    11.533     5.591   -17.272  -135.590   -19.320     1.671 
 1859.000000   -26.864   -15.952    11.508     3.112   -17.282  -137.435   -19.297    -1.570 
 1886.000000   -26.527   -18.065    11.463     0.623   -17.289  -139.441   -19.187    -3.588 
 1913.000000   -26.087   -20.584    11.453    -2.012   -17.293  -141.440   -19.080    -5.063 
 1940.000000   -26.062   -21.291    11.450    -4.398   -17.302  -143.403   -19.061    -7.133 
 1967.000000   -25.982   -23.371    11.428    -7.012   -17.309  -145.472   -19.066    -8.459 
 1994.000000   -25.962   -26.246    11.390    -9.336   -17.291  -147.431   -19.123   -10.561 
 2021.000000   -25.826   -28.567    11.399   -12.067   -17.312  -149.381   -19.170   -12.799 
 2048.000000   -25.443   -29.327    11.371   -14.607   -17.329  -151.398   -19.110   -15.574 
 2075.000000   -25.720   -29.022    11.390   -17.159   -17.325  -153.479   -19.027   -17.633 
 2102.000000   -25.662   -32.921    11.354   -19.497   -17.343  -155.549   -19.005   -19.713 
 2129.000000   -25.453   -37.957    11.325   -22.115   -17.346  -157.500   -19.017   -21.497 
 2156.000000   -25.270   -38.459    11.321   -24.411   -17.374  -159.404   -19.217   -23.311 
 2183.000000   -25.374   -39.238    11.321   -27.007   -17.352  -161.429   -19.251   -26.097 
 2210.000000   -25.207   -40.023    11.275   -29.534   -17.387  -163.526   -19.190   -28.811 
 2237.000000   -25.061   -42.436    11.267   -32.193   -17.390  -165.472   -19.180   -32.392 
 2264.000000   -25.036   -44.928    11.244   -34.520   -17.395  -167.416   -19.048   -34.510 
 2291.000000   -24.805   -47.975    11.209   -36.931   -17.401  -169.478   -18.984   -36.414 
 2318.000000   -24.898   -48.004    11.206   -39.498   -17.406  -171.429   -19.002   -38.226 
 2345.000000   -25.119   -50.209    11.198   -41.848   -17.388  -173.440   -19.115   -39.965 
 2372.000000   -24.777   -52.977    11.184   -44.514   -17.418  -175.619   -19.118   -42.443 
 2399.000000   -24.626   -55.655    11.167   -46.981   -17.432  -177.557   -19.041   -45.236 
 2426.000000   -24.649   -55.401    11.150   -49.370   -17.431  -179.583   -19.074   -47.337 
 2453.000000   -24.526   -55.491    11.134   -51.869   -17.416   178.355   -18.968   -48.790 
 2480.000000   -24.559   -61.074    11.086   -54.299   -17.478   176.513   -18.989   -52.056 
 2507.000000   -24.216   -62.903    11.075   -56.708   -17.471   174.507   -19.086   -53.522 
 2534.000000   -24.082   -64.434    11.063   -59.461   -17.493   172.455   -19.082   -55.577 
 2561.000000   -24.258   -64.964    11.065   -61.807   -17.495   170.390   -19.107   -58.594 
 2588.000000   -24.267   -67.804    11.015   -64.375   -17.493   168.402   -19.104   -60.594 
 2615.000000   -24.181   -72.572    10.989   -66.786   -17.529   166.431   -19.141   -63.767 
 2642.000000   -24.010   -75.693    10.974   -69.182   -17.518   164.609   -19.318   -65.504 
 2669.000000   -24.098   -74.660    10.982   -71.707   -17.535   162.432   -19.324   -67.639 
 2696.000000   -24.159   -73.290    10.958   -74.257   -17.507   160.420   -19.366   -70.283 
 2723.000000   -24.156   -75.272    10.948   -76.752   -17.532   158.415   -19.298   -72.763 
 2750.000000   -24.035   -76.936    10.919   -79.454   -17.537   156.203   -19.188   -74.627 
 2777.000000   -23.384   -81.399    10.867   -81.714   -17.630   154.103   -18.995   -78.015 
 2804.000000   -23.385   -81.322    10.892   -84.392   -17.584   152.135   -19.097   -79.544 
 2831.000000   -23.818   -87.098    10.811   -86.768   -17.683   150.466   -19.219   -85.442 
 2858.000000   -24.224   -88.665    10.822   -89.013   -17.622   148.439   -19.448   -86.659 
 2885.000000   -23.751   -89.436    10.817   -91.559   -17.639   146.343   -19.264   -88.990 
 2912.000000   -23.881   -90.876    10.788   -93.998   -17.652   144.672   -19.378   -90.852 
 2939.000000   -23.754   -90.228    10.793   -96.589   -17.646   142.511   -19.321   -92.590 
 2966.000000   -23.932   -92.534    10.773   -98.982   -17.650   140.490   -19.414   -94.666 
 2993.000000   -24.210   -97.098    10.739  -101.443   -17.664   138.455   -19.500   -96.722 
 3020.000000   -23.845  -101.440    10.709  -103.972   -17.686   136.355   -19.531  -100.254 
 3047.000000   -24.031  -100.265    10.708  -106.227   -17.691   134.504   -19.609  -102.868 
 3074.000000   -23.572  -100.763    10.677  -108.825   -17.699   132.331   -19.278  -104.744 
 3101.000000   -23.869  -103.363    10.661  -111.145   -17.710   130.683   -19.615  -107.290 
 3128.000000   -23.793  -103.947    10.658  -113.640   -17.699   128.584   -19.588  -108.026 
 3155.000000   -23.397  -107.030    10.636  -116.298   -17.729   126.188   -19.479  -111.484 
 3182.000000   -23.654  -109.088    10.598  -118.747   -17.783   124.194   -19.629  -115.541 
 3209.000000   -23.796  -112.046    10.595  -121.156   -17.805   122.261   -19.670  -119.876 
 3236.000000   -23.926  -113.217    10.567  -123.597   -17.781   120.550   -19.754  -122.023 
 3263.000000   -23.324  -114.479    10.563  -126.249   -17.788   118.123   -19.390  -123.021 
 3290.000000   -23.252  -119.106    10.474  -128.251   -17.864   116.494   -19.405  -127.619 
 3317.000000   -23.668  -116.919    10.516  -130.813   -17.820   114.669   -19.761  -128.388 
 3344.000000   -23.754  -118.923    10.507  -133.368   -17.824   112.503   -19.781  -129.948 
 3371.000000   -23.469  -120.198    10.481  -135.775   -17.834   110.430   -19.764  -133.291 
 3398.000000   -22.864  -119.458    10.483  -138.385   -17.816   108.136   -19.418  -135.215 
 3425.000000   -23.335  -125.099    10.409  -140.543   -17.900   106.487   -19.371  -140.349 
 3452.000000   -23.474  -125.237    10.432  -143.025   -17.881   104.674   -19.543  -141.056 
 3479.000000   -23.097  -126.732    10.430  -145.660   -17.853   102.178   -19.444  -141.029 
 3506.000000   -22.627  -128.268    10.399  -148.382   -17.854    99.821   -19.263  -142.141 
 3533.000000   -22.504  -138.601    10.261  -150.369   -18.059    98.165   -19.199  -151.449 
 3560.000000   -23.247  -132.048    10.366  -152.881   -17.932    96.529   -19.676  -151.441 
 3587.000000   -22.882  -137.207    10.282  -155.476   -17.988    94.222   -19.280  -154.623 
 3614.000000   -22.916  -138.994    10.290  -157.755   -17.972    92.476   -19.421  -155.566 
 3641.000000   -22.724  -137.960    10.300  -160.206   -17.963    90.469   -19.449  -157.392 
 3668.000000   -22.731  -139.925    10.259  -162.657   -18.000    88.503   -19.424  -160.991 
 3695.000000   -23.144  -141.678    10.260  -165.098   -17.996    86.470   -19.504  -163.385 
 3722.000000   -22.903  -141.828    10.286  -167.696   -17.977    84.348   -19.539  -165.158 
 3749.000000   -22.166  -142.869    10.227  -170.525   -17.957    81.787   -19.059  -166.555 
 3776.000000   -22.147  -147.539    10.194  -172.676   -18.059    79.921   -18.937  -170.990 
 3803.000000   -22.390  -152.105    10.117  -174.790   -18.158    78.120   -19.001  -175.444 
 3830.000000   -22.670  -151.736    10.152  -177.334   -18.080    76.218   -19.327  -175.900 
 3857.000000   -21.757  -156.847    10.082   179.759   -18.125    73.462   -18.862  -178.962 
 3884.000000   -22.313  -158.334    10.093   178.024   -18.180    72.372   -19.269   175.884 
 3911.000000   -22.059  -157.050    10.072   175.448   -18.171    70.192   -18.976   174.182 
 3938.000000   -22.128  -157.645    10.058   173.004   -18.159    68.248   -18.797   172.368 
 3965.000000   -22.117  -158.894    10.062   170.429   -18.129    66.395   -18.978   171.862 
 3992.000000   -21.396  -161.492    10.028   167.693   -18.152    63.789   -18.649   170.713 
 4019.000000   -21.403  -164.832     9.978   165.430   -18.226    61.820   -18.586   166.273 
 4046.000000   -21.895  -164.353    10.002   163.333   -18.194    60.504   -18.945   162.861 
 4073.000000   -21.143  -166.998     9.928   160.391   -18.238    57.586   -18.258   160.933 
 4100.000000   -21.236  -169.158     9.934   158.124   -18.232    55.749   -18.177   159.353 
 4127.000000   -20.718  -173.619     9.854   155.724   -18.309    53.545   -17.798   157.661 
 4154.000000   -20.966  -175.874     9.819   153.662   -18.397    52.011   -17.978   153.158 
 4181.000000   -21.655  -178.038     9.845   151.504   -18.427    50.422   -18.299   149.696 
 4208.000000   -21.791  -176.500     9.906   149.152   -18.346    48.851   -18.635   148.632 
 4235.000000   -21.093  -177.923     9.836   146.229   -18.354    46.411   -18.182   147.110 
 4262.000000   -20.780  -177.323     9.835   143.755   -18.321    44.150   -17.998   146.196 
 4289.000000   -20.620   178.486     9.791   141.265   -18.378    41.905   -17.851   143.741 
 4316.000000   -20.712   176.004     9.766   138.792   -18.397    40.006   -17.825   142.001 
 4343.000000   -21.083   172.235     9.768   136.816   -18.454    38.599   -18.142   137.538 
 4370.000000   -20.355   173.334     9.774   134.082   -18.400    36.235   -18.003   136.962 
 4397.000000   -20.236   171.570     9.689   131.711   -18.483    33.942   -17.671   132.515 
 4424.000000   -20.723   169.742     9.688   129.577   -18.526    32.277   -17.689   129.270 
 4451.000000   -20.901   164.311     9.669   127.219   -18.569    30.382   -17.625   127.526 
 4478.000000   -19.917   164.033     9.656   124.409   -18.488    28.031   -17.389   128.247 
 4505.000000   -20.313   164.350     9.698   122.244   -18.524    26.681   -17.865   125.478 
 4532.000000   -19.922   163.948     9.661   119.613   -18.494    24.348   -17.594   123.589 
 4559.000000   -19.158   159.068     9.538   116.674   -18.528    21.139   -16.839   121.444 
 4586.000000   -19.878   154.920     9.563   115.150   -18.664    20.395   -17.184   116.597 
 4613.000000   -19.866   155.974     9.599   112.894   -18.608    18.814   -17.220   116.735 
 4640.000000   -19.223   157.100     9.592   109.979   -18.570    16.497   -17.028   117.019 
 4667.000000   -19.418   154.555     9.556   107.566   -18.584    14.374   -17.130   115.935 
 4694.000000   -19.113   148.705     9.450   105.040   -18.642    11.638   -16.798   112.911 
 4721.000000   -19.270   144.520     9.436   103.204   -18.762    10.001   -16.964   107.669 
 4748.000000   -19.247   144.625     9.450   100.926   -18.790     8.537   -16.914   105.195 
 4775.000000   -18.739   147.265     9.463    98.033   -18.683     6.244   -16.700   106.205 
 4802.000000   -18.913   137.950     9.339    95.942   -18.821     3.719   -16.440   103.147 
 4829.000000   -19.241   139.890     9.453    93.606   -18.762     2.796   -16.963   102.884 
 4856.000000   -18.355   140.317     9.416    90.413   -18.656     0.342   -16.776   104.338 
 4883.000000   -18.192   134.549     9.300    88.574   -18.824    -2.434   -16.406    98.235 
 4910.000000   -18.302   133.805     9.280    85.975   -18.834    -4.498   -16.256    95.626 
 4937.000000   -18.718   133.006     9.312    83.839   -18.851    -5.714   -16.401    93.341 
 4964.000000   -18.092   126.302     9.232    81.396   -18.901    -8.384   -16.066    91.987 
 4991.000000   -18.406   126.035     9.287    79.586   -18.981    -9.390   -16.515    89.571 
 5018.000000   -18.428   129.929     9.360    76.866   -18.889   -11.016   -16.733    89.406 
 5045.000000   -18.147   126.877     9.268    74.096   -18.887   -13.618   -16.525    87.009 
 5072.000000   -17.988   125.175     9.277    71.395   -18.844   -15.489   -16.483    86.530 
 5099.000000   -16.957   118.406     9.090    68.550   -18.846   -19.109   -15.537    84.663 
 5126.000000   -17.464   118.851     9.152    66.855   -18.941   -20.258   -15.812    82.007 
 5153.000000   -17.547   113.491     9.052    65.003   -19.104   -22.537   -15.746    77.804 
 5180.000000   -18.089   113.714     9.186    62.752   -19.107   -23.327   -16.354    77.225 
 5207.000000   -17.910   110.848     9.134    60.207   -19.140   -25.512   -16.192    75.156 
 5234.000000   -17.557   111.101     9.126    57.731   -19.119   -27.362   -16.110    73.119 
 5261.000000   -17.206   112.485     9.140    54.880   -18.994   -29.347   -15.932    73.093 
 5288.000000   -17.123   107.525     9.032    52.562   -19.061   -31.945   -15.611    71.242 
 5315.000000   -17.106    97.913     8.855    50.810   -19.244   -35.386   -15.033    66.924 
 5342.000000   -17.477   102.245     9.066    48.303   -19.213   -35.260   -15.907    66.773 
 5369.000000   -16.614   101.209     8.971    45.251   -19.077   -38.164   -15.514    67.157 
 5396.000000   -17.384    96.234     8.930    43.918   -19.338   -40.083   -15.685    60.509 
 5423.000000   -17.825    95.108     9.018    41.961   -19.434   -41.069   -15.980    57.797 
 5450.000000   -16.922    97.636     9.034    38.225   -19.176   -42.778   -15.787    61.891 
 5477.000000   -16.292    93.389     8.903    35.617   -19.140   -45.779   -15.361    60.534 
 5504.000000   -16.512    90.295     8.848    33.651   -19.247   -47.982   -15.284    57.404 
 5531.000000   -16.624    88.406     8.859    31.326   -19.270   -49.985   -15.456    54.961 
 5558.000000   -16.838    85.075     8.890    29.354   -19.396   -51.573   -15.778    52.081 
 5585.000000   -16.374    82.068     8.806    26.830   -19.376   -54.164   -15.375    50.401 
